Time [s],Channel 0,Channel 1,Channel 2,Channel 3,Channel 4,Channel 5
-2.000403425,0,0,0,0,0,0
-0.052223450,0,0,0,0,0,1
-0.048155325,0,0,0,0,0,0
-0.001085575,0,1,0,0,0,0
-0.001076250,0,0,0,0,0,0
-0.000404700,0,0,0,0,1,0
-0.000392525,0,0,0,1,1,0
-0.000328100,0,0,0,1,1,1
-0.000242500,0,0,0,1,1,0
-0.000083750,0,1,0,1,1,0
-0.000069425,0,0,0,1,1,0
-0.000063050,0,0,1,1,1,0
-0.000034225,0,0,0,1,1,0
-0.000000000,1,0,0,1,1,0
0.000015625,0,0,0,1,1,0
0.000205750,0,0,0,1,0,0
0.001505450,0,0,0,1,1,0
0.001516150,0,0,0,0,1,0
0.001565450,0,0,0,0,1,1
0.001587250,0,0,0,0,1,0
0.001742375,0,1,0,0,1,0
0.001756700,0,0,0,0,1,0
0.001763325,0,0,1,0,1,0
0.001792150,0,0,0,0,1,0
0.001825000,1,0,0,0,1,0
0.001840725,0,0,0,0,1,0
0.002022075,0,0,0,0,0,0
0.003432800,0,0,0,0,1,0
0.003442050,0,0,0,1,1,0
0.003486875,0,0,0,1,1,1
0.003508575,0,0,0,1,1,0
0.003663750,0,1,0,1,1,0
0.003678075,0,0,0,1,1,0
0.003684775,0,0,1,1,1,0
0.003713600,0,0,0,1,1,0
0.003747000,1,0,0,1,1,0
0.003762725,0,0,0,1,1,0
0.003943775,0,0,0,1,0,0
0.005461425,0,0,0,1,1,0
0.005470400,0,0,0,0,1,0
0.005515575,0,0,0,0,1,1
0.005537250,0,0,0,0,1,0
0.005692400,0,1,0,0,1,0
0.005706725,0,0,0,0,1,0
0.005713100,0,0,1,0,1,0
0.005741925,0,0,0,0,1,0
0.005775025,1,0,0,0,1,0
0.005790750,0,0,0,0,1,0
0.005972050,0,0,0,0,0,0
0.007488425,0,0,0,0,1,0
0.007497675,0,0,0,1,1,0
0.007542475,0,0,0,1,1,1
0.007564175,0,0,0,1,1,0
0.007719175,0,1,0,1,1,0
0.007733500,0,0,0,1,1,0
0.007739750,0,0,1,1,1,0
0.007768575,0,0,0,1,1,0
0.007802125,1,0,0,1,1,0
0.007817850,0,0,0,1,1,0
0.008031725,0,0,0,1,0,0
0.009438350,0,0,0,1,1,0
0.009447325,0,0,0,0,1,0
0.009492500,0,0,0,0,1,1
0.009514200,0,0,0,0,1,0
0.009669075,0,1,0,0,1,0
0.009683400,0,0,0,0,1,0
0.009690025,0,0,1,0,1,0
0.009718850,0,0,0,0,1,0
0.009751700,1,0,0,0,1,0
0.009767425,0,0,0,0,1,0
0.009948125,0,0,0,0,0,0
0.011463375,0,0,0,0,1,0
0.011472625,0,0,0,1,1,0
0.011517400,0,0,0,1,1,1
0.011539100,0,0,0,1,1,0
0.011694275,0,1,0,1,1,0
0.011708600,0,0,0,1,1,0
0.011714975,0,0,1,1,1,0
0.011743800,0,0,0,1,1,0
0.011776900,1,0,0,1,1,0
0.011792625,0,0,0,1,1,0
0.011973400,0,0,0,1,0,0
0.013488100,0,0,0,1,1,0
0.013497075,0,0,0,0,1,0
0.013542225,0,0,0,0,1,1
0.013563950,0,0,0,0,1,0
0.013718975,0,1,0,0,1,0
0.013733300,0,0,0,0,1,0
0.013739925,0,0,1,0,1,0
0.013768750,0,0,0,0,1,0
0.013801600,1,0,0,0,1,0
0.013817350,0,0,0,0,1,0
0.013998225,0,0,0,0,0,0
0.015514125,0,0,0,0,1,0
0.015523375,0,0,0,1,1,0
0.015568175,0,0,0,1,1,1
0.015589875,0,0,0,1,1,0
0.015745000,0,1,0,1,1,0
0.015759325,0,0,0,1,1,0
0.015766025,0,0,1,1,1,0
0.015794850,0,0,0,1,1,0
0.015827625,1,0,0,1,1,0
0.015843350,0,0,0,1,1,0
0.016024175,0,0,0,1,0,0
0.017432175,0,0,0,1,1,0
0.017441150,0,0,0,0,1,0
0.017486325,0,0,0,0,1,1
0.017508025,0,0,0,0,1,0
0.017663075,0,1,0,0,1,0
0.017677400,0,0,0,0,1,0
0.017684100,0,0,1,0,1,0
0.017712925,0,0,0,0,1,0
0.017745575,1,0,0,0,1,0
0.017761300,0,0,0,0,1,0
0.017942125,0,0,0,0,0,0
0.019460125,0,0,0,0,1,0
0.019469375,0,0,0,1,1,0
0.019512825,0,0,0,1,1,1
0.019534550,0,0,0,1,1,0
0.019689600,0,1,0,1,1,0
0.019703925,0,0,0,1,1,0
0.019710175,0,0,1,1,1,0
0.019739125,0,0,0,1,1,0
0.019772475,1,0,0,1,1,0
0.019788200,0,0,0,1,1,0
0.019968975,0,0,0,1,0,0
0.021485125,0,0,0,1,1,0
0.021494100,0,0,0,0,1,0
0.021537950,0,0,0,0,1,1
0.021559650,0,0,0,0,1,0
0.021714750,0,1,0,0,1,0
0.021729075,0,0,0,0,1,0
0.021735575,0,0,1,0,1,0
0.021764525,0,0,0,0,1,0
0.021797750,1,0,0,0,1,0
0.021813475,0,0,0,0,1,0
0.021994275,0,0,0,0,0,0
0.023511925,0,0,0,0,1,0
0.023521175,0,0,0,1,1,0
0.023564650,0,0,0,1,1,1
0.023586350,0,0,0,1,1,0
0.023741400,0,1,0,1,1,0
0.023755725,0,0,0,1,1,0
0.023762350,0,0,1,1,1,0
0.023791300,0,0,0,1,1,0
0.023824400,1,0,0,1,1,0
0.023840125,0,0,0,1,1,0
0.024020975,0,0,0,1,0,0
0.025432050,0,0,0,1,1,0
0.025441025,0,0,0,0,1,0
0.025484875,0,0,0,0,1,1
0.025506600,0,0,0,0,1,0
0.025661650,0,1,0,0,1,0
0.025675975,0,0,0,0,1,0
0.025682225,0,0,1,0,1,0
0.025711175,0,0,0,0,1,0
0.025744600,1,0,0,0,1,0
0.025760325,0,0,0,0,1,0
0.025941200,0,0,0,0,0,0
0.027455925,0,0,0,0,1,0
0.027465175,0,0,0,1,1,0
0.027508625,0,0,0,1,1,1
0.027530350,0,0,0,1,1,0
0.027685425,0,1,0,1,1,0
0.027699750,0,0,0,1,1,0
0.027706450,0,0,1,1,1,0
0.027735400,0,0,0,1,1,0
0.027768375,1,0,0,1,1,0
0.027784100,0,0,0,1,1,0
0.027964950,0,0,0,1,0,0
0.029480925,0,0,0,1,1,0
0.029489925,0,0,0,0,1,0
0.029533750,0,0,0,0,1,1
0.029555475,0,0,0,0,1,0
0.029710575,0,1,0,0,1,0
0.029724900,0,0,0,0,1,0
0.029731525,0,0,1,0,1,0
0.029760475,0,0,0,0,1,0
0.029793575,1,0,0,0,1,0
0.029809300,0,0,0,0,1,0
0.029990100,0,0,0,0,0,0
0.031505775,0,0,0,0,1,0
0.031515025,0,0,0,1,1,0
0.031558500,0,0,0,1,1,1
0.031580200,0,0,0,1,1,0
0.031735350,0,1,0,1,1,0
0.031749675,0,0,0,1,1,0
0.031756050,0,0,1,1,1,0
0.031785000,0,0,0,1,1,0
0.031818225,1,0,0,1,1,0
0.031833950,0,0,0,1,1,0
0.032014625,0,0,0,1,0,0
0.033431950,0,0,0,1,1,0
0.033440925,0,0,0,0,1,0
0.033484775,0,0,0,0,1,1
0.033506500,0,0,0,0,1,0
0.033661675,0,1,0,0,1,0
0.033676000,0,0,0,0,1,0
0.033682675,0,0,1,0,1,0
0.033711625,0,0,0,0,1,0
0.033744300,1,0,0,0,1,0
0.033760025,0,0,0,0,1,0
0.033940775,0,0,0,0,0,0
0.035457825,0,0,0,0,1,0
0.035467075,0,0,0,1,1,0
0.035510525,0,0,0,1,1,1
0.035532250,0,0,0,1,1,0
0.035687450,0,1,0,1,1,0
0.035701775,0,0,0,1,1,0
0.035708025,0,0,1,1,1,0
0.035736975,0,0,0,1,1,0
0.035770375,1,0,0,1,1,0
0.035786125,0,0,0,1,1,0
0.035966875,0,0,0,1,0,0
0.037481750,0,0,0,1,1,0
0.037490750,0,0,0,0,1,0
0.037534575,0,0,0,0,1,1
0.037556300,0,0,0,0,1,0
0.037711525,0,1,0,0,1,0
0.037725850,0,0,0,0,1,0
0.037732550,0,0,1,0,1,0
0.037761500,0,0,0,0,1,0
0.037794475,1,0,0,0,1,0
0.037810200,0,0,0,0,1,0
0.037991100,0,0,0,0,0,0
0.039504500,0,0,0,0,1,0
0.039513750,0,0,0,1,1,0
0.039557225,0,0,0,1,1,1
0.039578925,0,0,0,1,1,0
0.039733875,0,1,0,1,1,0
0.039748200,0,0,0,1,1,0
0.039754825,0,0,1,1,1,0
0.039783775,0,0,0,1,1,0
0.039817175,1,0,0,1,1,0
0.039832925,0,0,0,1,1,0
0.040013675,0,0,0,1,0,0
0.041431625,0,0,0,1,1,0
0.041440600,0,0,0,0,1,0
0.041484450,0,0,0,0,1,1
0.041506150,0,0,0,0,1,0
0.041661325,0,1,0,0,1,0
0.041675650,0,0,0,0,1,0
0.041682275,0,0,1,0,1,0
0.041711225,0,0,0,0,1,0
0.041744325,1,0,0,0,1,0
0.041760050,0,0,0,0,1,0
0.041940975,0,0,0,0,0,0
0.043456650,0,0,0,0,1,0
0.043465900,0,0,0,1,1,0
0.043509375,0,0,0,1,1,1
0.043531075,0,0,0,1,1,0
0.043686100,0,1,0,1,1,0
0.043700425,0,0,0,1,1,0
0.043706800,0,0,1,1,1,0
0.043735750,0,0,0,1,1,0
0.043769100,1,0,0,1,1,0
0.043784825,0,0,0,1,1,0
0.043965525,0,0,0,1,0,0
0.045481425,0,0,0,1,1,0
0.045490425,0,0,0,0,1,0
0.045534250,0,0,0,0,1,1
0.045555975,0,0,0,0,1,0
0.045711175,0,1,0,0,1,0
0.045725500,0,0,0,0,1,0
0.045732125,0,0,1,0,1,0
0.045761075,0,0,0,0,1,0
0.045793850,1,0,0,0,1,0
0.045809600,0,0,0,0,1,0
0.045990250,0,0,0,0,0,0
0.047503325,0,0,0,0,1,0
0.047512575,0,0,0,1,1,0
0.047556025,0,0,0,1,1,1
0.047577750,0,0,0,1,1,0
0.047732825,0,1,0,1,1,0
0.047747150,0,0,0,1,1,0
0.047753825,0,0,1,1,1,0
0.047782775,0,0,0,1,1,0
0.047816125,1,0,0,1,1,0
0.047831875,0,0,0,1,1,0
0.048012675,0,0,0,1,0,0
0.049431700,0,0,0,1,1,0
0.049440675,0,0,0,0,1,0
0.049484525,0,0,0,0,1,1
0.049506250,0,0,0,0,1,0
0.049661400,0,1,0,0,1,0
0.049675725,0,0,0,0,1,0
0.049688025,0,0,1,0,1,0
0.049716975,0,0,0,0,1,0
0.049743900,1,0,0,0,1,0
0.049759625,0,0,0,0,1,0
0.049940525,0,0,0,0,0,0
0.051454250,0,0,0,0,1,0
0.051463500,0,0,0,1,1,0
0.051506975,0,0,0,1,1,1
0.051528675,0,0,0,1,1,0
0.051683800,0,1,0,1,1,0
0.051698125,0,0,0,1,1,0
0.051704800,0,0,1,1,1,0
0.051739825,0,0,0,1,1,0
0.051766725,1,0,0,1,1,0
0.051782450,0,0,0,1,1,0
0.051970150,0,0,0,1,0,0
0.053483325,0,0,0,1,1,0
0.053492300,0,0,0,0,1,0
0.053536150,0,0,0,0,1,1
0.053557875,0,0,0,0,1,0
0.053712950,0,1,0,0,1,0
0.053727275,0,0,0,0,1,0
0.053733525,0,0,1,0,1,0
0.053768525,0,0,0,0,1,0
0.053795875,1,0,0,0,1,0
0.053811600,0,0,0,0,1,0
0.053992475,0,0,0,0,0,0
0.055507150,0,0,0,0,1,0
0.055516400,0,0,0,1,1,0
0.055559875,0,0,0,1,1,1
0.055581600,0,0,0,1,1,0
0.055736725,0,1,0,1,1,0
0.055751050,0,0,0,1,1,0
0.055757725,0,0,1,1,1,0
0.055786675,0,0,0,1,1,0
0.055822475,1,0,0,1,1,0
0.055838200,0,0,0,1,1,0
0.056019075,0,0,0,1,0,0
0.057431575,0,0,0,1,1,0
0.057440550,0,0,0,0,1,0
0.057484400,0,0,0,0,1,1
0.057506100,0,0,0,0,1,0
0.057661175,0,1,0,0,1,0
0.057675500,0,0,0,0,1,0
0.057682125,0,0,1,0,1,0
0.057711075,0,0,0,0,1,0
0.057745100,1,0,0,0,1,0
0.057760825,0,0,0,0,1,0
0.057941525,0,0,0,0,0,0
0.059459200,0,0,0,0,1,0
0.059468450,0,0,0,1,1,0
0.059511900,0,0,0,1,1,1
0.059533625,0,0,0,1,1,0
0.059688700,0,1,0,1,1,0
0.059703025,0,0,0,1,1,0
0.059709700,0,0,1,1,1,0
0.059738650,0,0,0,1,1,0
0.059771625,1,0,0,1,1,0
0.059787350,0,0,0,1,1,0
0.059968250,0,0,0,1,0,0
0.061483075,0,0,0,1,1,0
0.061492050,0,0,0,0,1,0
0.061535900,0,0,0,0,1,1
0.061557625,0,0,0,0,1,0
0.061712775,0,1,0,0,1,0
0.061727100,0,0,0,0,1,0
0.061733350,0,0,1,0,1,0
0.061762300,0,0,0,0,1,0
0.061795650,1,0,0,0,1,0
0.061811375,0,0,0,0,1,0
0.061992250,0,0,0,0,0,0
0.063505950,0,0,0,0,1,0
0.063515200,0,0,0,1,1,0
0.063558650,0,0,0,1,1,1
0.063580375,0,0,0,1,1,0
0.063735425,0,1,0,1,1,0
0.063749750,0,0,0,1,1,0
0.063756425,0,0,1,1,1,0
0.063785375,0,0,0,1,1,0
0.063818600,1,0,0,1,1,0
0.063834350,0,0,0,1,1,0
0.064015125,0,0,0,1,0,0
0.065431375,0,0,0,1,1,0
0.065440350,0,0,0,0,1,0
0.065484200,0,0,0,0,1,1
0.065505925,0,0,0,0,1,0
0.065661000,0,1,0,0,1,0
0.065675325,0,0,0,0,1,0
0.065681950,0,0,1,0,1,0
0.065710900,0,0,0,0,1,0
0.065743675,1,0,0,0,1,0
0.065759425,0,0,0,0,1,0
0.065940200,0,0,0,0,0,0
0.067454900,0,0,0,0,1,0
0.067464150,0,0,0,1,1,0
0.067507625,0,0,0,1,1,1
0.067529325,0,0,0,1,1,0
0.067684400,0,1,0,1,1,0
0.067698725,0,0,0,1,1,0
0.067705350,0,0,1,1,1,0
0.067734300,0,0,0,1,1,0
0.067767400,1,0,0,1,1,0
0.067783125,0,0,0,1,1,0
0.067966600,0,0,0,1,0,0
0.069481800,0,0,0,1,1,0
0.069490775,0,0,0,0,1,0
0.069534625,0,0,0,0,1,1
0.069556350,0,0,0,0,1,0
0.069711550,0,1,0,0,1,0
0.069725875,0,0,0,0,1,0
0.069732375,0,0,1,0,1,0
0.069761325,0,0,0,0,1,0
0.069794550,1,0,0,0,1,0
0.069810275,0,0,0,0,1,0
0.069990975,0,0,0,0,0,0
0.071506925,0,0,0,0,1,0
0.071516175,0,0,0,1,1,0
0.071559625,0,0,0,1,1,1
0.071581350,0,0,0,1,1,0
0.071736575,0,1,0,1,1,0
0.071750900,0,0,0,1,1,0
0.071757150,0,0,1,1,1,0
0.071786100,0,0,0,1,1,0
0.071819450,1,0,0,1,1,0
0.071835175,0,0,0,1,1,0
0.072015975,0,0,0,1,0,0
0.073431200,0,0,0,1,1,0
0.073440175,0,0,0,0,1,0
0.073484025,0,0,0,0,1,1
0.073505725,0,0,0,0,1,0
0.073660825,0,1,0,0,1,0
0.073675150,0,0,0,0,1,0
0.073681775,0,0,1,0,1,0
0.073710725,0,0,0,0,1,0
0.073743400,1,0,0,0,1,0
0.073759125,0,0,0,0,1,0
0.073939825,0,0,0,0,0,0
0.075457875,0,0,0,0,1,0
0.075467125,0,0,0,1,1,0
0.075510600,0,0,0,1,1,1
0.075532325,0,0,0,1,1,0
0.075687525,0,1,0,1,1,0
0.075701850,0,0,0,1,1,0
0.075708225,0,0,1,1,1,0
0.075737175,0,0,0,1,1,0
0.075770400,1,0,0,1,1,0
0.075786150,0,0,0,1,1,0
0.075966925,0,0,0,1,0,0
0.077481775,0,0,0,1,1,0
0.077490775,0,0,0,0,1,0
0.077534600,0,0,0,0,1,1
0.077556325,0,0,0,0,1,0
0.077711425,0,1,0,0,1,0
0.077725750,0,0,0,0,1,0
0.077732450,0,0,1,0,1,0
0.077761400,0,0,0,0,1,0
0.077794375,1,0,0,0,1,0
0.077810100,0,0,0,0,1,0
0.077990950,0,0,0,0,0,0
0.079505625,0,0,0,0,1,0
0.079514875,0,0,0,1,1,0
0.079558350,0,0,0,1,1,1
0.079580075,0,0,0,1,1,0
0.079735150,0,1,0,1,1,0
0.079749475,0,0,0,1,1,0
0.079756100,0,0,1,1,1,0
0.079785050,0,0,0,1,1,0
0.079818150,1,0,0,1,1,0
0.079833875,0,0,0,1,1,0
0.080014675,0,0,0,1,0,0
0.081430975,0,0,0,1,1,0
0.081439950,0,0,0,0,1,0
0.081483800,0,0,0,0,1,1
0.081505525,0,0,0,0,1,0
0.081660725,0,1,0,0,1,0
0.081675050,0,0,0,0,1,0
0.081681300,0,0,1,0,1,0
0.081710250,0,0,0,0,1,0
0.081743350,1,0,0,0,1,0
0.081759075,0,0,0,0,1,0
0.081940000,0,0,0,0,0,0
0.083456675,0,0,0,0,1,0
0.083465925,0,0,0,1,1,0
0.083509400,0,0,0,1,1,1
0.083531125,0,0,0,1,1,0
0.083686175,0,1,0,1,1,0
0.083700500,0,0,0,1,1,0
0.083707200,0,0,1,1,1,0
0.083736150,0,0,0,1,1,0
0.083769125,1,0,0,1,1,0
0.083784850,0,0,0,1,1,0
0.083965750,0,0,0,1,0,0
0.085480650,0,0,0,1,1,0
0.085489625,0,0,0,0,1,0
0.085533475,0,0,0,0,1,1
0.085555200,0,0,0,0,1,0
0.085710275,0,1,0,0,1,0
0.085724600,0,0,0,0,1,0
0.085730850,0,0,1,0,1,0
0.085759800,0,0,0,0,1,0
0.085793200,1,0,0,0,1,0
0.085808925,0,0,0,0,1,0
0.085989775,0,0,0,0,0,0
0.087504475,0,0,0,0,1,0
0.087513725,0,0,0,1,1,0
0.087557175,0,0,0,1,1,1
0.087578900,0,0,0,1,1,0
0.087734050,0,1,0,1,1,0
0.087748375,0,0,0,1,1,0
0.087766000,0,0,1,1,1,0
0.087794950,0,0,0,1,1,0
0.087816925,1,0,0,1,1,0
0.087832650,0,0,0,1,1,0
0.088013500,0,0,0,1,0,0
0.089430825,0,0,0,1,1,0
0.089439800,0,0,0,0,1,0
0.089483650,0,0,0,0,1,1
0.089505375,0,0,0,0,1,0
0.089660350,0,1,0,0,1,0
0.089674675,0,0,0,0,1,0
0.089681050,0,0,1,0,1,0
0.089710000,0,0,0,0,1,0
0.089742975,1,0,0,0,1,0
0.089758725,0,0,0,0,1,0
0.089939650,0,0,0,0,0,0
0.091454350,0,0,0,0,1,0
0.091463600,0,0,0,1,1,0
0.091507050,0,0,0,1,1,1
0.091528775,0,0,0,1,1,0
0.091683750,0,1,0,1,1,0
0.091698075,0,0,0,1,1,0
0.091704700,0,0,1,1,1,0
0.091733650,0,0,0,1,1,0
0.091766750,1,0,0,1,1,0
0.091782500,0,0,0,1,1,0
0.091963375,0,0,0,1,0,0
0.093480325,0,0,0,1,1,0
0.093489300,0,0,0,0,1,0
0.093533150,0,0,0,0,1,1
0.093554875,0,0,0,0,1,0
0.093710025,0,1,0,0,1,0
0.093724350,0,0,0,0,1,0
0.093736800,0,0,1,0,1,0
0.093765750,0,0,0,0,1,0
0.093792975,1,0,0,0,1,0
0.093808700,0,0,0,0,1,0
0.093989475,0,0,0,0,0,0
0.095503200,0,0,0,0,1,0
0.095512450,0,0,0,1,1,0
0.095555925,0,0,0,1,1,1
0.095577650,0,0,0,1,1,0
0.095732800,0,1,0,1,1,0
0.095747125,0,0,0,1,1,0
0.095759875,0,0,1,1,1,0
0.095788825,0,0,0,1,1,0
0.095816050,1,0,0,1,1,0
0.095831775,0,0,0,1,1,0
0.096012575,0,0,0,1,0,0
0.097430550,0,0,0,1,1,0
0.097439525,0,0,0,0,1,0
0.097483375,0,0,0,0,1,1
0.097505075,0,0,0,0,1,0
0.097660250,0,1,0,0,1,0
0.097674575,0,0,0,0,1,0
0.097680950,0,0,1,0,1,0
0.097709900,0,0,0,0,1,0
0.097742875,1,0,0,0,1,0
0.097758600,0,0,0,0,1,0
0.097939375,0,0,0,0,0,0
0.099455375,0,0,0,0,1,0
0.099464625,0,0,0,1,1,0
0.099508075,0,0,0,1,1,1
0.099529800,0,0,0,1,1,0
0.099685025,0,1,0,1,1,0
0.099699350,0,0,0,1,1,0
0.099705725,0,0,1,1,1,0
0.099734675,0,0,0,1,1,0
0.099767900,1,0,0,1,1,0
0.099783625,0,0,0,1,1,0
0.099964425,0,0,0,1,0,0
0.101479325,0,0,0,1,1,0
0.101488300,0,0,0,0,1,0
0.101532150,0,0,0,0,1,1
0.101553875,0,0,0,0,1,0
0.101708925,0,1,0,0,1,0
0.101723250,0,0,0,0,1,0
0.101729950,0,0,1,0,1,0
0.101758900,0,0,0,0,1,0
0.101791425,1,0,0,0,1,0
0.101807150,0,0,0,0,1,0
0.101993675,0,0,0,0,0,0
0.103508275,0,0,0,0,1,0
0.103517525,0,0,0,1,1,0
0.103560975,0,0,0,1,1,1
0.103582700,0,0,0,1,1,0
0.103737900,0,1,0,1,1,0
0.103752200,0,0,0,1,1,0
0.103758900,0,0,1,1,1,0
0.103787850,0,0,0,1,1,0
0.103820825,1,0,0,1,1,0
0.103836550,0,0,0,1,1,0
0.104017325,0,0,0,1,0,0
0.105430475,0,0,0,1,1,0
0.105439450,0,0,0,0,1,0
0.105483300,0,0,0,0,1,1
0.105505000,0,0,0,0,1,0
0.105660275,0,1,0,0,1,0
0.105674600,0,0,0,0,1,0
0.105681275,0,0,1,0,1,0
0.105710225,0,0,0,0,1,0
0.105743450,1,0,0,0,1,0
0.105759200,0,0,0,0,1,0
0.105939975,0,0,0,0,0,0
0.107454025,0,0,0,0,1,0
0.107463275,0,0,0,1,1,0
0.107506725,0,0,0,1,1,1
0.107528450,0,0,0,1,1,0
0.107691850,0,1,0,1,1,0
0.107706175,0,0,0,1,1,0
0.107712800,0,0,1,1,1,0
0.107741750,0,0,0,1,1,0
0.107774550,1,0,0,1,1,0
0.107790275,0,0,0,1,1,0
0.107971100,0,0,0,1,0,0
0.109487050,0,0,0,1,1,0
0.109496025,0,0,0,0,1,0
0.109539875,0,0,0,0,1,1
0.109561600,0,0,0,0,1,0
0.109716625,0,1,0,0,1,0
0.109730950,0,0,0,0,1,0
0.109737575,0,0,1,0,1,0
0.109766525,0,0,0,0,1,0
0.109799625,1,0,0,0,1,0
0.109815375,0,0,0,0,1,0
0.109996200,0,0,0,0,0,0
0.111512100,0,0,0,0,1,0
0.111521350,0,0,0,1,1,0
0.111564800,0,0,0,1,1,1
0.111586525,0,0,0,1,1,0
0.111741650,0,1,0,1,1,0
0.111755975,0,0,0,1,1,0
0.111762350,0,0,1,1,1,0
0.111791300,0,0,0,1,1,0
0.111824525,1,0,0,1,1,0
0.111840250,0,0,0,1,1,0
0.112021150,0,0,0,1,0,0
0.113430175,0,0,0,1,1,0
0.113439150,0,0,0,0,1,0
0.113483000,0,0,0,0,1,1
0.113504725,0,0,0,0,1,0
0.113659800,0,1,0,0,1,0
0.113674125,0,0,0,0,1,0
0.113680500,0,0,1,0,1,0
0.113709450,0,0,0,0,1,0
0.113742425,1,0,0,0,1,0
0.113758150,0,0,0,0,1,0
0.113939000,0,0,0,0,0,0
0.115455000,0,0,0,0,1,0
0.115464250,0,0,0,1,1,0
0.115507700,0,0,0,1,1,1
0.115529425,0,0,0,1,1,0
0.115684575,0,1,0,1,1,0
0.115698900,0,0,0,1,1,0
0.115705275,0,0,1,1,1,0
0.115745150,0,0,0,1,1,0
0.115767450,1,0,0,1,1,0
0.115783175,0,0,0,1,1,0
0.115964050,0,0,0,1,0,0
0.117478950,0,0,0,1,1,0
0.117487925,0,0,0,0,1,0
0.117531775,0,0,0,0,1,1
0.117553500,0,0,0,0,1,0
0.117708575,0,1,0,0,1,0
0.117722925,0,0,0,0,1,0
0.117729175,0,0,1,0,1,0
0.117758100,0,0,0,0,1,0
0.117791225,1,0,0,0,1,0
0.117806950,0,0,0,0,1,0
0.117987775,0,0,0,0,0,0
0.119504825,0,0,0,0,1,0
0.119514075,0,0,0,1,1,0
0.119557525,0,0,0,1,1,1
0.119579250,0,0,0,1,1,0
0.119734300,0,1,0,1,1,0
0.119748625,0,0,0,1,1,0
0.119755300,0,0,1,1,1,0
0.119784250,0,0,0,1,1,0
0.119817225,1,0,0,1,1,0
0.119832975,0,0,0,1,1,0
0.120013850,0,0,0,1,0,0
0.121429750,0,0,0,1,1,0
0.121438725,0,0,0,0,1,0
0.121482575,0,0,0,0,1,1
0.121504300,0,0,0,0,1,0
0.121659375,0,1,0,0,1,0
0.121673700,0,0,0,0,1,0
0.121679950,0,0,1,0,1,0
0.121708900,0,0,0,0,1,0
0.121742300,1,0,0,0,1,0
0.121758050,0,0,0,0,1,0
0.121938900,0,0,0,0,0,0
0.123453600,0,0,0,0,1,0
0.123462850,0,0,0,1,1,0
0.123506325,0,0,0,1,1,1
0.123528050,0,0,0,1,1,0
0.123683150,0,1,0,1,1,0
0.123697475,0,0,0,1,1,0
0.123703850,0,0,1,1,1,0
0.123732800,0,0,0,1,1,0
0.123766025,1,0,0,1,1,0
0.123781750,0,0,0,1,1,0
0.123962450,0,0,0,1,0,0
0.125475750,0,0,0,1,1,0
0.125484725,0,0,0,0,1,0
0.125528575,0,0,0,0,1,1
0.125550275,0,0,0,0,1,0
0.125705425,0,1,0,0,1,0
0.125719750,0,0,0,0,1,0
0.125726375,0,0,1,0,1,0
0.125755325,0,0,0,0,1,0
0.125788425,1,0,0,0,1,0
0.125804150,0,0,0,0,1,0
0.125984925,0,0,0,0,0,0
0.127500625,0,0,0,0,1,0
0.127509875,0,0,0,1,1,0
0.127553350,0,0,0,1,1,1
0.127575050,0,0,0,1,1,0
0.127730250,0,1,0,1,1,0
0.127744575,0,0,0,1,1,0
0.127750825,0,0,1,1,1,0
0.127779775,0,0,0,1,1,0
0.127813200,1,0,0,1,1,0
0.127828925,0,0,0,1,1,0
0.128009675,0,0,0,1,0,0
0.129429325,0,0,0,1,1,0
0.129438300,0,0,0,0,1,0
0.129482150,0,0,0,0,1,1
0.129503875,0,0,0,0,1,0
0.129658950,0,1,0,0,1,0
0.129673275,0,0,0,0,1,0
0.129679650,0,0,1,0,1,0
0.129708600,0,0,0,0,1,0
0.129741950,1,0,0,0,1,0
0.129757675,0,0,0,0,1,0
0.129938500,0,0,0,0,0,0
0.131455525,0,0,0,0,1,0
0.131464775,0,0,0,1,1,0
0.131508225,0,0,0,1,1,1
0.131529950,0,0,0,1,1,0
0.131685100,0,1,0,1,1,0
0.131699425,0,0,0,1,1,0
0.131706125,0,0,1,1,1,0
0.131735050,0,0,0,1,1,0
0.131768050,1,0,0,1,1,0
0.131783775,0,0,0,1,1,0
0.131964550,0,0,0,1,0,0
0.133480450,0,0,0,1,1,0
0.133489425,0,0,0,0,1,0
0.133533275,0,0,0,0,1,1
0.133555000,0,0,0,0,1,0
0.133710200,0,1,0,0,1,0
0.133724500,0,0,0,0,1,0
0.133731125,0,0,1,0,1,0
0.133760075,0,0,0,0,1,0
0.133792875,1,0,0,0,1,0
0.133808600,0,0,0,0,1,0
0.133989275,0,0,0,0,0,0
0.135502325,0,0,0,0,1,0
0.135511575,0,0,0,1,1,0
0.135555025,0,0,0,1,1,1
0.135576750,0,0,0,1,1,0
0.135731825,0,1,0,1,1,0
0.135746150,0,0,0,1,1,0
0.135752775,0,0,1,1,1,0
0.135781725,0,0,0,1,1,0
0.135814825,1,0,0,1,1,0
0.135830575,0,0,0,1,1,0
0.136011375,0,0,0,1,0,0
0.137429725,0,0,0,1,1,0
0.137438700,0,0,0,0,1,0
0.137482550,0,0,0,0,1,1
0.137504250,0,0,0,0,1,0
0.137670475,0,1,0,0,1,0
0.137684800,0,0,0,0,1,0
0.137691300,0,0,1,0,1,0
0.137720250,0,0,0,0,1,0
0.137742100,1,0,0,0,1,0
0.137757825,0,0,0,0,1,0
0.137938550,0,0,0,0,0,0
0.139453250,0,0,0,0,1,0
0.139462500,0,0,0,1,1,0
0.139505950,0,0,0,1,1,1
0.139527675,0,0,0,1,1,0
0.139682750,0,1,0,1,1,0
0.139697075,0,0,0,1,1,0
0.139703700,0,0,1,1,1,0
0.139732650,0,0,0,1,1,0
0.139765750,1,0,0,1,1,0
0.139781475,0,0,0,1,1,0
0.139962275,0,0,0,1,0,0
0.141479225,0,0,0,1,1,0
0.141488200,0,0,0,0,1,0
0.141532050,0,0,0,0,1,1
0.141553750,0,0,0,0,1,0
0.141708825,0,1,0,0,1,0
0.141723150,0,0,0,0,1,0
0.141729850,0,0,1,0,1,0
0.141758800,0,0,0,0,1,0
0.141791775,1,0,0,0,1,0
0.141807500,0,0,0,0,1,0
0.141988375,0,0,0,0,0,0
0.143502100,0,0,0,0,1,0
0.143511350,0,0,0,1,1,0
0.143554825,0,0,0,1,1,1
0.143576525,0,0,0,1,1,0
0.143731600,0,1,0,1,1,0
0.143745925,0,0,0,1,1,0
0.143752625,0,0,1,1,1,0
0.143781575,0,0,0,1,1,0
0.143814925,1,0,0,1,1,0
0.143830650,0,0,0,1,1,0
0.144011475,0,0,0,1,0,0
0.145429425,0,0,0,1,1,0
0.145438425,0,0,0,0,1,0
0.145482275,0,0,0,0,1,1
0.145503975,0,0,0,0,1,0
0.145659050,0,1,0,0,1,0
0.145673375,0,0,0,0,1,0
0.145679750,0,0,1,0,1,0
0.145708700,0,0,0,0,1,0
0.145741675,1,0,0,0,1,0
0.145757400,0,0,0,0,1,0
0.145938250,0,0,0,0,0,0
0.147454250,0,0,0,0,1,0
0.147463500,0,0,0,1,1,0
0.147506975,0,0,0,1,1,1
0.147528700,0,0,0,1,1,0
0.147683825,0,1,0,1,1,0
0.147698150,0,0,0,1,1,0
0.147715475,0,0,1,1,1,0
0.147744425,0,0,0,1,1,0
0.147766700,1,0,0,1,1,0
0.147782425,0,0,0,1,1,0
