Time [s],Channel 0,Channel 1,Channel 2,Channel 3,Channel 4,Channel 5,Channel 6,Channel 7
-50.677222280,0,0,0,0,0,0,0,0
-49.552719080,0,0,0,1,0,0,0,0
-46.417115920,0,0,0,0,0,0,0,0
-46.416217920,0,0,1,0,0,0,0,0
-46.412152000,0,0,0,0,0,0,0,0
-46.338231560,1,0,0,0,0,0,0,0
-46.338228960,1,0,0,0,0,1,0,0
-46.338219680,1,0,0,0,0,0,0,0
-46.338210560,1,0,0,0,0,0,0,1
-46.338176560,1,0,0,0,0,0,0,0
-46.336458840,1,0,0,1,0,0,0,0
-46.336231160,0,0,0,1,0,0,0,0
-46.336223520,0,0,0,1,0,0,0,1
-46.336189520,0,0,0,1,0,0,0,0
-46.334233600,1,0,0,1,0,0,0,0
-46.334226000,1,0,0,1,0,0,0,1
-46.334191960,1,0,0,1,0,0,0,0
-46.332233720,0,0,0,1,0,0,0,0
-46.332226080,0,0,0,1,0,0,0,1
-46.332192080,0,0,0,1,0,0,0,0
-46.330233720,1,0,0,1,0,0,0,0
-46.330226040,1,0,0,1,0,0,0,1
-46.330192040,1,0,0,1,0,0,0,0
-46.328233840,0,0,0,1,0,0,0,0
-46.328226200,0,0,0,1,0,0,0,1
-46.328192200,0,0,0,1,0,0,0,0
-46.326233840,1,0,0,1,0,0,0,0
-46.326226160,1,0,0,1,0,0,0,1
-46.326192160,1,0,0,1,0,0,0,0
-46.324234000,0,0,0,1,0,0,0,0
-46.324226360,0,0,0,1,0,0,0,1
-46.324192360,0,0,0,1,0,0,0,0
-46.322234000,1,0,0,1,0,0,0,0
-46.322226320,1,0,0,1,0,0,0,1
-46.322192320,1,0,0,1,0,0,0,0
-46.320234120,0,0,0,1,0,0,0,0
-46.320226440,0,0,0,1,0,0,0,1
-46.320192440,0,0,0,1,0,0,0,0
-46.318234120,1,0,0,1,0,0,0,0
-46.318226440,1,0,0,1,0,0,0,1
-46.318192440,1,0,0,1,0,0,0,0
-46.316234240,0,0,0,1,0,0,0,0
-46.316226680,0,0,0,1,0,0,0,1
-46.316192680,0,0,0,1,0,0,0,0
-46.314234240,1,0,0,1,0,0,0,0
-46.314226640,1,0,0,1,0,0,0,1
-46.314192640,1,0,0,1,0,0,0,0
-46.312234360,0,0,0,1,0,0,0,0
-46.312226720,0,0,0,1,0,0,0,1
-46.312192720,0,0,0,1,0,0,0,0
-46.310234360,1,0,0,1,0,0,0,0
-46.310226680,1,0,0,1,0,0,0,1
-46.310192680,1,0,0,1,0,0,0,0
-46.308234520,0,0,0,1,0,0,0,0
-46.308226840,0,0,0,1,0,0,0,1
-46.308192840,0,0,0,1,0,0,0,0
-46.306234520,1,0,0,1,0,0,0,0
-46.306226800,1,0,0,1,0,0,0,1
-46.306192800,1,0,0,1,0,0,0,0
-46.304234640,0,0,0,1,0,0,0,0
-46.304227040,0,0,0,1,0,0,0,1
-46.304193000,0,0,0,1,0,0,0,0
-46.302234640,1,0,0,1,0,0,0,0
-46.302227000,1,0,0,1,0,0,0,1
-46.302193000,1,0,0,1,0,0,0,0
-46.300234760,0,0,0,1,0,0,0,0
-46.300227080,0,0,0,1,0,0,0,1
-46.300193080,0,0,0,1,0,0,0,0
-46.298234760,1,0,0,1,0,0,0,0
-46.298227160,1,0,0,1,0,0,0,1
-46.298193160,1,0,0,1,0,0,0,0
-46.296234920,0,0,0,1,0,0,0,0
-46.296227280,0,0,0,1,0,0,0,1
-46.296193240,0,0,0,1,0,0,0,0
-46.294234920,1,0,0,1,0,0,0,0
-46.294227240,1,0,0,1,0,0,0,1
-46.294193200,1,0,0,1,0,0,0,0
-46.292235040,0,0,0,1,0,0,0,0
-46.292227360,0,0,0,1,0,0,0,1
-46.292193360,0,0,0,1,0,0,0,0
-46.290235040,1,0,0,1,0,0,0,0
-46.290227360,1,0,0,1,0,0,0,1
-46.290193320,1,0,0,1,0,0,0,0
-46.288235160,0,0,0,1,0,0,0,0
-46.288227560,0,0,0,1,0,0,0,1
-46.288193560,0,0,0,1,0,0,0,0
-46.286235160,1,0,0,1,0,0,0,0
-46.286227520,1,0,0,1,0,0,0,1
-46.286193520,1,0,0,1,0,0,0,0
-46.284235280,0,0,0,1,0,0,0,0
-46.284227600,0,0,0,1,0,0,0,1
-46.284193600,0,0,0,1,0,0,0,0
-46.282235280,1,0,0,1,0,0,0,0
-46.282227720,1,0,0,1,0,0,0,1
-46.282193680,1,0,0,1,0,0,0,0
-46.280235440,0,0,0,1,0,0,0,0
-46.280227840,0,0,0,1,0,0,0,1
-46.280193840,0,0,0,1,0,0,0,0
-46.278235440,1,0,0,1,0,0,0,0
-46.278227840,1,0,0,1,0,0,0,1
-46.278193800,1,0,0,1,0,0,0,0
-46.276235560,0,0,0,1,0,0,0,0
-46.276227920,0,0,0,1,0,0,0,1
-46.276193600,0,0,0,1,0,0,0,0
-46.274235560,1,0,0,1,0,0,0,0
-46.274227880,1,0,0,1,0,0,0,1
-46.274193880,1,0,0,1,0,0,0,0
-46.272235680,0,0,0,1,0,0,0,0
-46.272228080,0,0,0,1,0,0,0,1
-46.272194080,0,0,0,1,0,0,0,0
-46.270235680,1,0,0,1,0,0,0,0
-46.270228040,1,0,0,1,0,0,0,1
-46.270194040,1,0,0,1,0,0,0,0
-46.268235840,0,0,0,1,0,0,0,0
-46.268228200,0,0,0,1,0,0,0,1
-46.268194200,0,0,0,1,0,0,0,0
-46.266235800,1,0,0,1,0,0,0,0
-46.266228160,1,0,0,1,0,0,0,1
-46.266194160,1,0,0,1,0,0,0,0
-46.264235960,0,0,0,1,0,0,0,0
-46.264228280,0,0,0,1,0,0,0,1
-46.264194240,0,0,0,1,0,0,0,0
-46.262235960,1,0,0,1,0,0,0,0
-46.262228360,1,0,0,1,0,0,0,1
-46.262194360,1,0,0,1,0,0,0,0
-46.260236080,0,0,0,1,0,0,0,0
-46.260228440,0,0,0,1,0,0,0,1
-46.260194440,0,0,0,1,0,0,0,0
-46.258236080,1,0,0,1,0,0,0,0
-46.258228400,1,0,0,1,0,0,0,1
-46.258194400,1,0,0,1,0,0,0,0
-46.256236200,0,0,0,1,0,0,0,0
-46.256228640,0,0,0,1,0,0,0,1
-46.256194600,0,0,0,1,0,0,0,0
-46.254236200,1,0,0,1,0,0,0,0
-46.254228600,1,0,0,1,0,0,0,1
-46.254194600,1,0,0,1,0,0,0,0
-46.252236360,0,0,0,1,0,0,0,0
-46.252228760,0,0,0,1,0,0,0,1
-46.252194720,0,0,0,1,0,0,0,0
-46.250236360,1,0,0,1,0,0,0,0
-46.250228720,1,0,0,1,0,0,0,1
-46.250194680,1,0,0,1,0,0,0,0
-46.248236480,0,0,0,1,0,0,0,0
-46.248228800,0,0,0,1,0,0,0,1
-46.248194800,0,0,0,1,0,0,0,0
-46.246236480,1,0,0,1,0,0,0,0
-46.246228880,1,0,0,1,0,0,0,1
-46.246194880,1,0,0,1,0,0,0,0
-46.244236600,0,0,0,1,0,0,0,0
-46.244228960,0,0,0,1,0,0,0,1
-46.244194960,0,0,0,1,0,0,0,0
-46.242236600,1,0,0,1,0,0,0,0
-46.242228960,1,0,0,1,0,0,0,1
-46.242194920,1,0,0,1,0,0,0,0
-46.240236720,0,0,0,1,0,0,0,0
-46.240229080,0,0,0,1,0,0,0,1
-46.240195080,0,0,0,1,0,0,0,0
-46.238236720,1,0,0,1,0,0,0,0
-46.238229080,1,0,0,1,0,0,0,1
-46.238195040,1,0,0,1,0,0,0,0
-46.236236880,0,0,0,1,0,0,0,0
-46.236229280,0,0,0,1,0,0,0,1
-46.236195280,0,0,0,1,0,0,0,0
-46.234236880,1,0,0,1,0,0,0,0
-46.234229240,1,0,0,1,0,0,0,1
-46.234195240,1,0,0,1,0,0,0,0
-46.232237000,0,0,0,1,0,0,0,0
-46.232229400,0,0,0,1,0,0,0,1
-46.232195400,0,0,0,1,0,0,0,0
-46.230237000,1,0,0,1,0,0,0,0
-46.230229360,1,0,0,1,0,0,0,1
-46.230195360,1,0,0,1,0,0,0,0
-46.228237120,0,0,0,1,0,0,0,0
-46.228229440,0,0,0,1,0,0,0,1
-46.228195440,0,0,0,1,0,0,0,0
-46.226237120,1,0,0,1,0,0,0,0
-46.226229520,1,0,0,1,0,0,0,1
-46.226195520,1,0,0,1,0,0,0,0
-46.224237280,0,0,0,1,0,0,0,0
-46.224229640,0,0,0,1,0,0,0,1
-46.224195600,0,0,0,1,0,0,0,0
-46.222237280,1,0,0,1,0,0,0,0
-46.222229600,1,0,0,1,0,0,0,1
-46.222195600,1,0,0,1,0,0,0,0
-46.220237400,0,0,0,1,0,0,0,0
-46.220229760,0,0,0,1,0,0,0,1
-46.220195720,0,0,0,1,0,0,0,0
-46.218237400,1,0,0,1,0,0,0,0
-46.218229760,1,0,0,1,0,0,0,1
-46.218195760,1,0,0,1,0,0,0,0
-46.216237520,0,0,0,1,0,0,0,0
-46.216229920,0,0,0,1,0,0,0,1
-46.216195920,0,0,0,1,0,0,0,0
-46.214237520,1,0,0,1,0,0,0,0
-46.214229880,1,0,0,1,0,0,0,1
-46.214195880,1,0,0,1,0,0,0,0
-46.212237640,0,0,0,1,0,0,0,0
-46.212230000,0,0,0,1,0,0,0,1
-46.212195960,0,0,0,1,0,0,0,0
-46.210237640,1,0,0,1,0,0,0,0
-46.210230080,1,0,0,1,0,0,0,1
-46.210196080,1,0,0,1,0,0,0,0
-46.208237800,0,0,0,1,0,0,0,0
-46.208230160,0,0,0,1,0,0,0,1
-46.208196160,0,0,0,1,0,0,0,0
-46.206237800,1,0,0,1,0,0,0,0
-46.206230120,1,0,0,1,0,0,0,1
-46.206196120,1,0,0,1,0,0,0,0
-46.204237920,0,0,0,1,0,0,0,0
-46.204230280,0,0,0,1,0,0,0,1
-46.204196280,0,0,0,1,0,0,0,0
-46.202237920,1,0,0,1,0,0,0,0
-46.202230240,1,0,0,1,0,0,0,1
-46.202196240,1,0,0,1,0,0,0,0
-46.200238040,0,0,0,1,0,0,0,0
-46.200230440,0,0,0,1,0,0,0,1
-46.200196440,0,0,0,1,0,0,0,0
-46.198238040,1,0,0,1,0,0,0,0
-46.198230440,1,0,0,1,0,0,0,1
-46.198196400,1,0,0,1,0,0,0,0
-46.196238160,0,0,0,1,0,0,0,0
-46.196230520,0,0,0,1,0,0,0,1
-46.196196520,0,0,0,1,0,0,0,0
-46.194238160,1,0,0,1,0,0,0,0
-46.194230480,1,0,0,1,0,0,0,1
-46.194196480,1,0,0,1,0,0,0,0
-46.192238320,0,0,0,1,0,0,0,0
-46.192230640,0,0,0,1,0,0,0,1
-46.192196640,0,0,0,1,0,0,0,0
-46.190238320,1,0,0,1,0,0,0,0
-46.190230720,1,0,0,1,0,0,0,1
-46.190196720,1,0,0,1,0,0,0,0
-46.188238440,0,0,0,1,0,0,0,0
-46.188230800,0,0,0,1,0,0,0,1
-46.188196800,0,0,0,1,0,0,0,0
-46.186238440,1,0,0,1,0,0,0,0
-46.186230760,1,0,0,1,0,0,0,1
-46.186196760,1,0,0,1,0,0,0,0
-46.184238560,0,0,0,1,0,0,0,0
-46.184230920,0,0,0,1,0,0,0,1
-46.184196920,0,0,0,1,0,0,0,0
-46.182238560,1,0,0,1,0,0,0,0
-46.182230880,1,0,0,1,0,0,0,1
-46.182196880,1,0,0,1,0,0,0,0
-46.180238720,0,0,0,1,0,0,0,0
-46.180231120,0,0,0,1,0,0,0,1
-46.180197080,0,0,0,1,0,0,0,0
-46.178238720,1,0,0,1,0,0,0,0
-46.178231080,1,0,0,1,0,0,0,1
-46.178197080,1,0,0,1,0,0,0,0
-46.176238840,0,0,0,1,0,0,0,0
-46.176231160,0,0,0,1,0,0,0,1
-46.176197160,0,0,0,1,0,0,0,0
-46.174238840,1,0,0,1,0,0,0,0
-46.174231240,1,0,0,1,0,0,0,1
-46.174197240,1,0,0,1,0,0,0,0
-46.172238960,0,0,0,1,0,0,0,0
-46.172231360,0,0,0,1,0,0,0,1
-46.172197320,0,0,0,1,0,0,0,0
-46.170238960,1,0,0,1,0,0,0,0
-46.170231320,1,0,0,1,0,0,0,1
-46.170197320,1,0,0,1,0,0,0,0
-46.168239080,0,0,0,1,0,0,0,0
-46.168231480,0,0,0,1,0,0,0,1
-46.168197440,0,0,0,1,0,0,0,0
-46.166239080,1,0,0,1,0,0,0,0
-46.166231440,1,0,0,1,0,0,0,1
-46.166197400,1,0,0,1,0,0,0,0
-46.164239240,0,0,0,1,0,0,0,0
-46.164231640,0,0,0,1,0,0,0,1
-46.164197640,0,0,0,1,0,0,0,0
-46.162239240,1,0,0,1,0,0,0,0
-46.162231600,1,0,0,1,0,0,0,1
-46.162197600,1,0,0,1,0,0,0,0
-46.160239360,0,0,0,1,0,0,0,0
-46.160231680,0,0,0,1,0,0,0,1
-46.160197680,0,0,0,1,0,0,0,0
-46.158239360,1,0,0,1,0,0,0,0
-46.158231680,1,0,0,1,0,0,0,1
-46.158197640,1,0,0,1,0,0,0,0
-46.156239480,0,0,0,1,0,0,0,0
-46.156231800,0,0,0,1,0,0,0,1
-46.156197800,0,0,0,1,0,0,0,0
-46.154239480,1,0,0,1,0,0,0,0
-46.154231920,1,0,0,1,0,0,0,1
-46.154197880,1,0,0,1,0,0,0,0
-46.152239640,0,0,0,1,0,0,0,0
-46.152232000,0,0,0,1,0,0,0,1
-46.152198000,0,0,0,1,0,0,0,0
-46.150239600,1,0,0,1,0,0,0,0
-46.150231960,1,0,0,1,0,0,0,1
-46.150197960,1,0,0,1,0,0,0,0
-46.148239760,0,0,0,1,0,0,0,0
-46.148232120,0,0,0,1,0,0,0,1
-46.148198120,0,0,0,1,0,0,0,0
-46.146239760,1,0,0,1,0,0,0,0
-46.146232080,1,0,0,1,0,0,0,1
-46.146198080,1,0,0,1,0,0,0,0
-46.144239880,0,0,0,1,0,0,0,0
-46.144232280,0,0,0,1,0,0,0,1
-46.144198280,0,0,0,1,0,0,0,0
-46.142239880,1,0,0,1,0,0,0,0
-46.142232240,1,0,0,1,0,0,0,1
-46.142198240,1,0,0,1,0,0,0,0
-46.140240000,0,0,0,1,0,0,0,0
-46.140232360,0,0,0,1,0,0,0,1
-46.140198320,0,0,0,1,0,0,0,0
-46.138240000,1,0,0,1,0,0,0,0
-46.138232320,1,0,0,1,0,0,0,1
-46.138198320,1,0,0,1,0,0,0,0
-46.136240160,0,0,0,1,0,0,0,0
-46.136232480,0,0,0,1,0,0,0,1
-46.136198440,0,0,0,1,0,0,0,0
-46.134240160,1,0,0,1,0,0,0,0
-46.134232560,1,0,0,1,0,0,0,1
-46.134198560,1,0,0,1,0,0,0,0
-46.132240280,0,0,0,1,0,0,0,0
-46.132232640,0,0,0,1,0,0,0,1
-46.132198640,0,0,0,1,0,0,0,0
-46.130240280,1,0,0,1,0,0,0,0
-46.130232600,1,0,0,1,0,0,0,1
-46.130198600,1,0,0,1,0,0,0,0
-46.128240400,0,0,0,1,0,0,0,0
-46.128232840,0,0,0,1,0,0,0,1
-46.128198800,0,0,0,1,0,0,0,0
-46.126240400,1,0,0,1,0,0,0,0
-46.126232800,1,0,0,1,0,0,0,1
-46.126198800,1,0,0,1,0,0,0,0
-46.124240520,0,0,0,1,0,0,0,0
-46.124232880,0,0,0,1,0,0,0,1
-46.124198880,0,0,0,1,0,0,0,0
-46.122240520,1,0,0,1,0,0,0,0
-46.122232840,1,0,0,1,0,0,0,1
-46.122198840,1,0,0,1,0,0,0,0
-46.120240680,0,0,0,1,0,0,0,0
-46.120233000,0,0,0,1,0,0,0,1
-46.120199000,0,0,0,1,0,0,0,0
-46.118240680,1,0,0,1,0,0,0,0
-46.118233080,1,0,0,1,0,0,0,1
-46.118199080,1,0,0,1,0,0,0,0
-46.116240800,0,0,0,1,0,0,0,0
-46.116233160,0,0,0,1,0,0,0,1
-46.116199160,0,0,0,1,0,0,0,0
-46.114240800,1,0,0,1,0,0,0,0
-46.114233160,1,0,0,1,0,0,0,1
-46.114199120,1,0,0,1,0,0,0,0
-46.112240920,0,0,0,1,0,0,0,0
-46.112233360,0,0,0,1,0,0,0,1
-46.112199360,0,0,0,1,0,0,0,0
-46.110240920,1,0,0,1,0,0,0,0
-46.110233320,1,0,0,1,0,0,0,1
-46.110199320,1,0,0,1,0,0,0,0
-46.108241080,0,0,0,1,0,0,0,0
-46.108233480,0,0,0,1,0,0,0,1
-46.108199480,0,0,0,1,0,0,0,0
-46.106241040,1,0,0,1,0,0,0,0
-46.106233440,1,0,0,1,0,0,0,1
-46.106199120,1,0,0,1,0,0,0,0
-46.104241200,0,0,0,1,0,0,0,0
-46.104233520,0,0,0,1,0,0,0,1
-46.104199520,0,0,0,1,0,0,0,0
-46.102241200,1,0,0,1,0,0,0,0
-46.102233480,1,0,0,1,0,0,0,1
-46.102199480,1,0,0,1,0,0,0,0
-46.100241320,0,0,0,1,0,0,0,0
-46.100233720,0,0,0,1,0,0,0,1
-46.100199720,0,0,0,1,0,0,0,0
-46.098241320,1,0,0,1,0,0,0,0
-46.098233680,1,0,0,1,0,0,0,1
-46.098199680,1,0,0,1,0,0,0,0
-46.096241440,0,0,0,1,0,0,0,0
-46.096233840,0,0,0,1,0,0,0,1
-46.096199800,0,0,0,1,0,0,0,0
-46.094241440,1,0,0,1,0,0,0,0
-46.094233800,1,0,0,1,0,0,0,1
-46.094199800,1,0,0,1,0,0,0,0
-46.092241600,0,0,0,1,0,0,0,0
-46.092234000,0,0,0,1,0,0,0,1
-46.092200000,0,0,0,1,0,0,0,0
-46.090241600,1,0,0,1,0,0,0,0
-46.090233960,1,0,0,1,0,0,0,1
-46.090199960,1,0,0,1,0,0,0,0
-46.088241720,0,0,0,1,0,0,0,0
-46.088234080,0,0,0,1,0,0,0,1
-46.088200040,0,0,0,1,0,0,0,0
-46.086833480,0,0,0,0,0,0,0,0
-46.086833080,0,0,1,0,0,0,0,0
-46.086241680,1,0,1,0,0,0,0,0
-46.086234040,1,0,1,0,0,0,0,1
-46.086200040,1,0,1,0,0,0,0,0
-46.084241840,0,0,1,0,0,0,0,0
-46.084234240,0,0,1,0,0,0,0,1
-46.084200240,0,0,1,0,0,0,0,0
-46.082241840,1,0,1,0,0,0,0,0
-46.082234200,1,0,1,0,0,0,0,1
-46.082200200,1,0,1,0,0,0,0,0
-46.080241960,0,0,1,0,0,0,0,0
-46.080234360,0,0,1,0,0,0,0,1
-46.080200360,0,0,1,0,0,0,0,0
-46.078241960,1,0,1,0,0,0,0,0
-46.078234320,1,0,1,0,0,0,0,1
-46.078200320,1,0,1,0,0,0,0,0
-46.076242120,0,0,1,0,0,0,0,0
-46.076234400,0,0,1,0,0,0,0,1
-46.076200400,0,0,1,0,0,0,0,0
-46.074242120,1,0,1,0,0,0,0,0
-46.074234520,1,0,1,0,0,0,0,1
-46.074200480,1,0,1,0,0,0,0,0
-46.072242240,0,0,1,0,0,0,0,0
-46.072234600,0,0,1,0,0,0,0,1
-46.072200600,0,0,1,0,0,0,0,0
-46.070242240,1,0,1,0,0,0,0,0
-46.070234560,1,0,1,0,0,0,0,1
-46.070200560,1,0,1,0,0,0,0,0
-46.068242360,0,0,1,0,0,0,0,0
-46.068234720,0,0,1,0,0,0,0,1
-46.068200720,0,0,1,0,0,0,0,0
-46.066242360,1,0,1,0,0,0,0,0
-46.066234680,1,0,1,0,0,0,0,1
-46.066200680,1,0,1,0,0,0,0,0
-46.064242520,0,0,1,0,0,0,0,0
-46.064234880,0,0,1,0,0,0,0,1
-46.064200880,0,0,1,0,0,0,0,0
-46.062242520,1,0,1,0,0,0,0,0
-46.062234840,1,0,1,0,0,0,0,1
-46.062200840,1,0,1,0,0,0,0,0
-46.060242640,0,0,1,0,0,0,0,0
-46.060235000,0,0,1,0,0,0,0,1
-46.060201000,0,0,1,0,0,0,0,0
-46.058242640,1,0,1,0,0,0,0,0
-46.058234960,1,0,1,0,0,0,0,1
-46.058200960,1,0,1,0,0,0,0,0
-46.056242760,0,0,1,0,0,0,0,0
-46.056235200,0,0,1,0,0,0,0,1
-46.056201200,0,0,1,0,0,0,0,0
-46.054242760,1,0,1,0,0,0,0,0
-46.054235160,1,0,1,0,0,0,0,1
-46.054201160,1,0,1,0,0,0,0,0
-46.052242880,0,0,1,0,0,0,0,0
-46.052235240,0,0,1,0,0,0,0,1
-46.052201240,0,0,1,0,0,0,0,0
-46.050242880,1,0,1,0,0,0,0,0
-46.050235200,1,0,1,0,0,0,0,1
-46.050201200,1,0,1,0,0,0,0,0
-46.048243040,0,0,1,0,0,0,0,0
-46.048235440,0,0,1,0,0,0,0,1
-46.048201400,0,0,1,0,0,0,0,0
-46.046243040,1,0,1,0,0,0,0,0
-46.046235400,1,0,1,0,0,0,0,1
-46.046201400,1,0,1,0,0,0,0,0
-46.044243160,0,0,1,0,0,0,0,0
-46.044235560,0,0,1,0,0,0,0,1
-46.044201520,0,0,1,0,0,0,0,0
-46.042243160,1,0,1,0,0,0,0,0
-46.042235520,1,0,1,0,0,0,0,1
-46.042201520,1,0,1,0,0,0,0,0
-46.040243280,0,0,1,0,0,0,0,0
-46.040235600,0,0,1,0,0,0,0,1
-46.040201600,0,0,1,0,0,0,0,0
-46.038243280,1,0,1,0,0,0,0,0
-46.038235680,1,0,1,0,0,0,0,1
-46.038201680,1,0,1,0,0,0,0,0
-46.036243440,0,0,1,0,0,0,0,0
-46.036235760,0,0,1,0,0,0,0,1
-46.036201760,0,0,1,0,0,0,0,0
-46.034243400,1,0,1,0,0,0,0,0
-46.034235760,1,0,1,0,0,0,0,1
-46.034201720,1,0,1,0,0,0,0,0
-46.032243560,0,0,1,0,0,0,0,0
-46.032235880,0,0,1,0,0,0,0,1
-46.032201880,0,0,1,0,0,0,0,0
-46.030243560,1,0,1,0,0,0,0,0
-46.030235880,1,0,1,0,0,0,0,1
-46.030201840,1,0,1,0,0,0,0,0
-46.028243680,0,0,1,0,0,0,0,0
-46.028236080,0,0,1,0,0,0,0,1
-46.028202080,0,0,1,0,0,0,0,0
-46.026243680,1,0,1,0,0,0,0,0
-46.026236040,1,0,1,0,0,0,0,1
-46.026202040,1,0,1,0,0,0,0,0
-46.024243800,0,0,1,0,0,0,0,0
-46.024236120,0,0,1,0,0,0,0,1
-46.024202120,0,0,1,0,0,0,0,0
-46.022243800,1,0,1,0,0,0,0,0
-46.022236240,1,0,1,0,0,0,0,1
-46.022202200,1,0,1,0,0,0,0,0
-46.020243960,0,0,1,0,0,0,0,0
-46.020236240,0,0,1,0,0,0,0,1
-46.020202240,0,0,1,0,0,0,0,0
-46.018243960,1,0,1,0,0,0,0,0
-46.018236320,1,0,1,0,0,0,0,1
-46.018202320,1,0,1,0,0,0,0,0
-46.016244080,0,0,1,0,0,0,0,0
-46.016236440,0,0,1,0,0,0,0,1
-46.016202440,0,0,1,0,0,0,0,0
-46.014244080,1,0,1,0,0,0,0,0
-46.014236400,1,0,1,0,0,0,0,1
-46.014202400,1,0,1,0,0,0,0,0
-46.012244200,0,0,1,0,0,0,0,0
-46.012236560,0,0,1,0,0,0,0,1
-46.012202520,0,0,1,0,0,0,0,0
-46.010244200,1,0,1,0,0,0,0,0
-46.010236520,1,0,1,0,0,0,0,1
-46.010202520,1,0,1,0,0,0,0,0
-46.008244320,0,0,1,0,0,0,0,0
-46.008236720,0,0,1,0,0,0,0,1
-46.008202720,0,0,1,0,0,0,0,0
-46.006244320,1,0,1,0,0,0,0,0
-46.006236680,1,0,1,0,0,0,0,1
-46.006202680,1,0,1,0,0,0,0,0
-46.004244480,0,0,1,0,0,0,0,0
-46.004236800,0,0,1,0,0,0,0,1
-46.004202760,0,0,1,0,0,0,0,0
-46.002244480,1,0,1,0,0,0,0,0
-46.002236880,1,0,1,0,0,0,0,1
-46.002202880,1,0,1,0,0,0,0,0
-46.000244600,0,0,1,0,0,0,0,0
-46.000236960,0,0,1,0,0,0,0,1
-46.000202960,0,0,1,0,0,0,0,0
-45.998244600,1,0,1,0,0,0,0,0
-45.998236920,1,0,1,0,0,0,0,1
-45.998202920,1,0,1,0,0,0,0,0
-45.996244720,0,0,1,0,0,0,0,0
-45.996237080,0,0,1,0,0,0,0,1
-45.996203080,0,0,1,0,0,0,0,0
-45.994244720,1,0,1,0,0,0,0,0
-45.994237040,1,0,1,0,0,0,0,1
-45.994203040,1,0,1,0,0,0,0,0
-45.992244880,0,0,1,0,0,0,0,0
-45.992237280,0,0,1,0,0,0,0,1
-45.992203240,0,0,1,0,0,0,0,0
-45.990244840,1,0,1,0,0,0,0,0
-45.990237240,1,0,1,0,0,0,0,1
-45.990203200,1,0,1,0,0,0,0,0
-45.988245000,0,0,1,0,0,0,0,0
-45.988237320,0,0,1,0,0,0,0,1
-45.988203320,0,0,1,0,0,0,0,0
-45.986245000,1,0,1,0,0,0,0,0
-45.986237400,1,0,1,0,0,0,0,1
-45.986203400,1,0,1,0,0,0,0,0
-45.984245120,0,0,1,0,0,0,0,0
-45.984237440,0,0,1,0,0,0,0,1
-45.984203440,0,0,1,0,0,0,0,0
-45.982245120,1,0,1,0,0,0,0,0
-45.982237520,1,0,1,0,0,0,0,1
-45.982203520,1,0,1,0,0,0,0,0
-45.980245240,0,0,1,0,0,0,0,0
-45.980237600,0,0,1,0,0,0,0,1
-45.980203600,0,0,1,0,0,0,0,0
-45.978245240,1,0,1,0,0,0,0,0
-45.978237560,1,0,1,0,0,0,0,1
-45.978203560,1,0,1,0,0,0,0,0
-45.976245400,0,0,1,0,0,0,0,0
-45.976237720,0,0,1,0,0,0,0,1
-45.976203720,0,0,1,0,0,0,0,0
-45.974245400,1,0,1,0,0,0,0,0
-45.974237680,1,0,1,0,0,0,0,1
-45.974203680,1,0,1,0,0,0,0,0
-45.972245520,0,0,1,0,0,0,0,0
-45.972237920,0,0,1,0,0,0,0,1
-45.972203920,0,0,1,0,0,0,0,0
-45.970245520,1,0,1,0,0,0,0,0
-45.970237880,1,0,1,0,0,0,0,1
-45.970203880,1,0,1,0,0,0,0,0
-45.968245640,0,0,1,0,0,0,0,0
-45.968237960,0,0,1,0,0,0,0,1
-45.968203960,0,0,1,0,0,0,0,0
-45.966245640,1,0,1,0,0,0,0,0
-45.966238040,1,0,1,0,0,0,0,1
-45.966204040,1,0,1,0,0,0,0,0
-45.964245760,0,0,1,0,0,0,0,0
-45.964238200,0,0,1,0,0,0,0,1
-45.964204200,0,0,1,0,0,0,0,0
-45.962245760,1,0,1,0,0,0,0,0
-45.962238120,1,0,1,0,0,0,0,1
-45.962204120,1,0,1,0,0,0,0,0
-45.960245920,0,0,1,0,0,0,0,0
-45.960238280,0,0,1,0,0,0,0,1
-45.960204240,0,0,1,0,0,0,0,0
-45.958245920,1,0,1,0,0,0,0,0
-45.958238240,1,0,1,0,0,0,0,1
-45.958204200,1,0,1,0,0,0,0,0
-45.956246040,0,0,1,0,0,0,0,0
-45.956238440,0,0,1,0,0,0,0,1
-45.956204440,0,0,1,0,0,0,0,0
-45.954246040,1,0,1,0,0,0,0,0
-45.954238400,1,0,1,0,0,0,0,1
-45.954204400,1,0,1,0,0,0,0,0
-45.952246160,0,0,1,0,0,0,0,0
-45.952238480,0,0,1,0,0,0,0,1
-45.952204480,0,0,1,0,0,0,0,0
-45.950246160,1,0,1,0,0,0,0,0
-45.950238600,1,0,1,0,0,0,0,1
-45.950204560,1,0,1,0,0,0,0,0
-45.948246320,0,0,1,0,0,0,0,0
-45.948238600,0,0,1,0,0,0,0,1
-45.948204600,0,0,1,0,0,0,0,0
-45.946246320,1,0,1,0,0,0,0,0
-45.946238720,1,0,1,0,0,0,0,1
-45.946204680,1,0,1,0,0,0,0,0
-45.944246440,0,0,1,0,0,0,0,0
-45.944238800,0,0,1,0,0,0,0,1
-45.944204800,0,0,1,0,0,0,0,0
-45.942246440,1,0,1,0,0,0,0,0
-45.942238760,1,0,1,0,0,0,0,1
-45.942204760,1,0,1,0,0,0,0,0
-45.940246560,0,0,1,0,0,0,0,0
-45.940238960,0,0,1,0,0,0,0,1
-45.940204960,0,0,1,0,0,0,0,0
-45.938246560,1,0,1,0,0,0,0,0
-45.938238920,1,0,1,0,0,0,0,1
-45.938204920,1,0,1,0,0,0,0,0
-45.936246680,0,0,1,0,0,0,0,0
-45.936239080,0,0,1,0,0,0,0,1
-45.936204760,0,0,1,0,0,0,0,0
-45.934246680,1,0,1,0,0,0,0,0
-45.934239040,1,0,1,0,0,0,0,1
-45.934205040,1,0,1,0,0,0,0,0
-45.932246840,0,0,1,0,0,0,0,0
-45.932239160,0,0,1,0,0,0,0,1
-45.932205120,0,0,1,0,0,0,0,0
-45.930246840,1,0,1,0,0,0,0,0
-45.930239240,1,0,1,0,0,0,0,1
-45.930205240,1,0,1,0,0,0,0,0
-45.928246960,0,0,1,0,0,0,0,0
-45.928239320,0,0,1,0,0,0,0,1
-45.928205320,0,0,1,0,0,0,0,0
-45.926246960,1,0,1,0,0,0,0,0
-45.926239280,1,0,1,0,0,0,0,1
-45.926205280,1,0,1,0,0,0,0,0
-45.924247080,0,0,1,0,0,0,0,0
-45.924239440,0,0,1,0,0,0,0,1
-45.924205440,0,0,1,0,0,0,0,0
-45.922247080,1,0,1,0,0,0,0,0
-45.922239400,1,0,1,0,0,0,0,1
-45.922205400,1,0,1,0,0,0,0,0
-45.920247240,0,0,1,0,0,0,0,0
-45.920239640,0,0,1,0,0,0,0,1
-45.920205600,0,0,1,0,0,0,0,0
-45.918247200,1,0,1,0,0,0,0,0
-45.918239600,1,0,1,0,0,0,0,1
-45.918205600,1,0,1,0,0,0,0,0
-45.916247360,0,0,1,0,0,0,0,0
-45.916239680,0,0,1,0,0,0,0,1
-45.916205680,0,0,1,0,0,0,0,0
-45.914247360,1,0,1,0,0,0,0,0
-45.914239760,1,0,1,0,0,0,0,1
-45.914205760,1,0,1,0,0,0,0,0
-45.912247480,0,0,1,0,0,0,0,0
-45.912239840,0,0,1,0,0,0,0,1
-45.912205840,0,0,1,0,0,0,0,0
-45.910247480,1,0,1,0,0,0,0,0
-45.910239840,1,0,1,0,0,0,0,1
-45.910205800,1,0,1,0,0,0,0,0
-45.908247600,0,0,1,0,0,0,0,0
-45.908239960,0,0,1,0,0,0,0,1
-45.908205960,0,0,1,0,0,0,0,0
-45.906247600,1,0,1,0,0,0,0,0
-45.906239960,1,0,1,0,0,0,0,1
-45.906205920,1,0,1,0,0,0,0,0
-45.904247760,0,0,1,0,0,0,0,0
-45.904240160,0,0,1,0,0,0,0,1
