Time [s],Channel 0,Channel 1,Channel 2,Channel 3
-2.355914340,0,0,0,0
-0.000000000,1,0,0,0
0.000008460,1,1,0,0
0.000045800,1,1,0,1
0.000061700,1,1,0,0
0.000534120,1,1,1,0
0.000541560,1,1,0,0
0.000582820,1,1,1,0
0.000590420,1,1,0,0
0.000631640,1,1,1,0
0.000639380,1,1,0,0
0.001050560,0,1,0,0
0.001059600,0,0,0,0
0.001096940,0,0,0,1
0.001112940,0,0,0,0
0.001520060,0,0,1,0
0.001527660,0,0,0,0
0.001568760,0,0,1,0
0.001576360,0,0,0,0
0.001617520,0,0,1,0
0.001625240,0,0,0,0
0.003063120,1,0,0,0
0.003072220,1,1,0,0
0.003109000,1,1,0,1
0.003125000,1,1,0,0
0.003531740,1,1,1,0
0.003539360,1,1,0,0
0.003580580,1,1,1,0
0.003588180,1,1,0,0
0.003629260,1,1,1,0
0.003637000,1,1,0,0
0.005063660,0,1,0,0
0.005072720,0,0,0,0
0.005109940,0,0,0,1
0.005125940,0,0,0,0
0.005533000,0,0,1,0
0.005540600,0,0,0,0
0.005581820,0,0,1,0
0.005589420,0,0,0,0
0.005630640,0,0,1,0
0.005638380,0,0,0,0
0.007065060,1,0,0,0
0.007074160,1,1,0,0
0.007110880,1,1,0,1
0.007126880,1,1,0,0
0.007534120,1,1,1,0
0.007541740,1,1,0,0
0.007582900,1,1,1,0
0.007590480,1,1,0,0
0.007631580,1,1,1,0
0.007639320,1,1,0,0
0.009050340,0,1,0,0
0.009059300,0,0,0,0
0.009096520,0,0,0,1
0.009112500,0,0,0,0
0.009519380,0,0,1,0
0.009527000,0,0,0,0
0.009568200,0,0,1,0
0.009575800,0,0,0,0
0.009616900,0,0,1,0
0.009624620,0,0,0,0
0.011050240,1,0,0,0
0.011059340,1,1,0,0
0.011096200,1,1,0,1
0.011112200,1,1,0,0
0.011519440,1,1,1,0
0.011527060,1,1,0,0
0.011568200,1,1,1,0
0.011575800,1,1,0,0
0.011617020,1,1,1,0
0.011624760,1,1,0,0
0.013050320,0,1,0,0
0.013059360,0,0,0,0
0.013096700,0,0,0,1
0.013112700,0,0,0,0
0.013519700,0,0,1,0
0.013527300,0,0,0,0
0.013568400,0,0,1,0
0.013576000,0,0,0,0
0.013617220,0,0,1,0
0.013624940,0,0,0,0
0.015060900,1,0,0,0
0.015070040,1,1,0,0
0.015106780,1,1,0,1
0.015122760,1,1,0,0
0.015530260,1,1,1,0
0.015537880,1,1,0,0
0.015579100,1,1,1,0
0.015586680,1,1,0,0
0.015627780,1,1,1,0
0.015635520,1,1,0,0
0.017061740,0,1,0,0
0.017070740,0,0,0,0
0.017107900,0,0,0,1
0.017123900,0,0,0,0
0.017530840,0,0,1,0
0.017538440,0,0,0,0
0.017579720,0,0,1,0
0.017587320,0,0,0,0
0.017628400,0,0,1,0
0.017636140,0,0,0,0
0.019062680,1,0,0,0
0.019071800,1,1,0,0
0.019108460,1,1,0,1
0.019124460,1,1,0,0
0.019531340,1,1,1,0
0.019538940,1,1,0,0
0.019580160,1,1,1,0
0.019587760,1,1,0,0
0.019628840,1,1,1,0
0.019636580,1,1,0,0
0.021063580,0,1,0,0
0.021072620,0,0,0,0
0.021109720,0,0,0,1
0.021125720,0,0,0,0
0.021532580,0,0,1,0
0.021540200,0,0,0,0
0.021581420,0,0,1,0
0.021589020,0,0,0,0
0.021630160,0,0,1,0
0.021637900,0,0,0,0
0.023050420,1,0,0,0
0.023059480,1,1,0,0
0.023096480,1,1,0,1
0.023112460,1,1,0,0
0.023519220,1,1,1,0
0.023526820,1,1,0,0
0.023567980,1,1,1,0
0.023575580,1,1,0,0
0.023616780,1,1,1,0
0.023624540,1,1,0,0
0.025062400,0,1,0,0
0.025071380,0,0,0,0
0.025108720,0,0,0,1
0.025124720,0,0,0,0
0.025531840,0,0,1,0
0.025539460,0,0,0,0
0.025580540,0,0,1,0
0.025588140,0,0,0,0
0.025629360,0,0,1,0
0.025637100,0,0,0,0
0.027065460,1,0,0,0
0.027074560,1,1,0,0
0.027111220,1,1,0,1
0.027127220,1,1,0,0
0.027534280,1,1,1,0
0.027541900,1,1,0,0
0.027583100,1,1,1,0
0.027590700,1,1,0,0
0.027631800,1,1,1,0
0.027639540,1,1,0,0
0.029067240,0,1,0,0
0.029076200,0,0,0,0
0.029117740,0,0,0,1
0.029133720,0,0,0,0
0.029540660,0,0,1,0
0.029548280,0,0,0,0
0.029589420,0,0,1,0
0.029597020,0,0,0,0
0.029638240,0,0,1,0
0.029645960,0,0,0,0
0.031062620,1,0,0,0
0.031071680,1,1,0,0
0.031108540,1,1,0,1
0.031124540,1,1,0,0
0.031531220,1,1,1,0
0.031538840,1,1,0,0
0.031580060,1,1,1,0
0.031587660,1,1,0,0
0.031628740,1,1,1,0
0.031636480,1,1,0,0
0.033064400,0,1,0,0
0.033073460,0,0,0,0
0.033110800,0,0,0,1
0.033126800,0,0,0,0
0.033535360,0,0,1,0
0.033542960,0,0,0,0
0.033584060,0,0,1,0
0.033591640,0,0,0,0
0.033632860,0,0,1,0
0.033640600,0,0,0,0
0.035050200,1,0,0,0
0.035059260,1,1,0,0
0.035095980,1,1,0,1
0.035111980,1,1,0,0
0.035518980,1,1,1,0
0.035526600,1,1,0,0
0.035567860,1,1,1,0
0.035575460,1,1,0,0
0.035616560,1,1,1,0
0.035624280,1,1,0,0
0.037050020,0,1,0,0
0.037059020,0,0,0,0
0.037096240,0,0,0,1
0.037112240,0,0,0,0
0.037523100,0,0,1,0
0.037530720,0,0,0,0
0.037571800,0,0,1,0
0.037579420,0,0,0,0
0.037620560,0,0,1,0
0.037628300,0,0,0,0
0.039065400,1,0,0,0
0.039074520,1,1,0,0
0.039111440,1,1,0,1
0.039127420,1,1,0,0
0.039534240,1,1,1,0
0.039541840,1,1,0,0
0.039583060,1,1,1,0
0.039590660,1,1,0,0
0.039631760,1,1,1,0
0.039639500,1,1,0,0
0.041050080,0,1,0,0
0.041059160,0,0,0,0
0.041096560,0,0,0,1
0.041112560,0,0,0,0
0.041519800,0,0,1,0
0.041527400,0,0,0,0
0.041568560,0,0,1,0
0.041576160,0,0,0,0
0.041617380,0,0,1,0
0.041625120,0,0,0,0
0.043060420,1,0,0,0
0.043069460,1,1,0,0
0.043106260,1,1,0,1
0.043122240,1,1,0,0
0.043529180,1,1,1,0
0.043536800,1,1,0,0
0.043578000,1,1,1,0
0.043585600,1,1,0,0
0.043626700,1,1,1,0
0.043634440,1,1,0,0
0.045049820,0,1,0,0
0.045058780,0,0,0,0
0.045097760,0,0,0,1
0.045113740,0,0,0,0
0.045520560,0,0,1,0
0.045528180,0,0,0,0
0.045569320,0,0,1,0
0.045576920,0,0,0,0
0.045618080,0,0,1,0
0.045625800,0,0,0,0
0.047050240,1,0,0,0
0.047059340,1,1,0,0
0.047096200,1,1,0,1
0.047112200,1,1,0,0
0.047521500,1,1,1,0
0.047529100,1,1,0,0
0.047567700,1,1,1,0
0.047575300,1,1,0,0
0.047616520,1,1,1,0
0.047624260,1,1,0,0
0.049059940,0,1,0,0
0.049068980,0,0,0,0
0.049106320,0,0,0,1
0.049122300,0,0,0,0
0.049529180,0,0,1,0
0.049536800,0,0,0,0
0.049577940,0,0,1,0
0.049585540,0,0,0,0
0.049626760,0,0,1,0
0.049634500,0,0,0,0
0.051062020,1,0,0,0
0.051071100,1,1,0,0
0.051107760,1,1,0,1
0.051123760,1,1,0,0
0.051530560,1,1,1,0
0.051538180,1,1,0,0
0.051579320,1,1,1,0
0.051586920,1,1,0,0
0.051628080,1,1,1,0
0.051635820,1,1,0,0
0.053049560,0,1,0,0
0.053058600,0,0,0,0
0.053095900,0,0,0,1
0.053111880,0,0,0,0
0.053518700,0,0,1,0
0.053526320,0,0,0,0
0.053567400,0,0,1,0
0.053574980,0,0,0,0
0.053616200,0,0,1,0
0.053623940,0,0,0,0
0.055062120,1,0,0,0
0.055071220,1,1,0,0
0.055108080,1,1,0,1
0.055124080,1,1,0,0
0.055531200,1,1,1,0
0.055538820,1,1,0,0
0.055580020,1,1,1,0
0.055587620,1,1,0,0
0.055628720,1,1,1,0
0.055636440,1,1,0,0
0.057049440,0,1,0,0
0.057058420,0,0,0,0
0.057095840,0,0,0,1
0.057111820,0,0,0,0
0.057518940,0,0,1,0
0.057526560,0,0,0,0
0.057567720,0,0,1,0
0.057575300,0,0,0,0
0.057616460,0,0,1,0
0.057624200,0,0,0,0
0.059049760,1,0,0,0
0.059058800,1,1,0,0
0.059095400,1,1,0,1
0.059111400,1,1,0,0
0.059518380,1,1,1,0
0.059526000,1,1,0,0
0.059567080,1,1,1,0
0.059574680,1,1,0,0
0.059615900,1,1,1,0
0.059623640,1,1,0,0
0.061049360,0,1,0,0
0.061058360,0,0,0,0
0.061095720,0,0,0,1
0.061111700,0,0,0,0
0.061518460,0,0,1,0
0.061526060,0,0,0,0
0.061567220,0,0,1,0
0.061574820,0,0,0,0
0.061615980,0,0,1,0
0.061623700,0,0,0,0
0.063061980,1,0,0,0
0.063071120,1,1,0,0
0.063107840,1,1,0,1
0.063123840,1,1,0,0
0.063530900,1,1,1,0
0.063538500,1,1,0,0
0.063579720,1,1,1,0
0.063587320,1,1,0,0
0.063628420,1,1,1,0
0.063636140,1,1,0,0
0.065063580,0,1,0,0
0.065072560,0,0,0,0
0.065109840,0,0,0,1
0.065125840,0,0,0,0
0.065533020,0,0,1,0
0.065540620,0,0,0,0
0.065581780,0,0,1,0
0.065589380,0,0,0,0
0.065630600,0,0,1,0
0.065638340,0,0,0,0
0.067049100,1,0,0,0
0.067058240,1,1,0,0
0.067094780,1,1,0,1
0.067110780,1,1,0,0
0.067517720,1,1,1,0
0.067525320,1,1,0,0
0.067566420,1,1,1,0
0.067574000,1,1,0,0
0.067615220,1,1,1,0
0.067622960,1,1,0,0
0.069049340,0,1,0,0
0.069058320,0,0,0,0
0.069095660,0,0,0,1
0.069111660,0,0,0,0
0.069518520,0,0,1,0
0.069526140,0,0,0,0
0.069567220,0,0,1,0
0.069574820,0,0,0,0
0.069615980,0,0,1,0
0.069623720,0,0,0,0
0.071049460,1,0,0,0
0.071058560,1,1,0,0
0.071100100,1,1,0,1
0.071116100,1,1,0,0
0.071522920,1,1,1,0
0.071530520,1,1,0,0
0.071571680,1,1,1,0
0.071579260,1,1,0,0
0.071620480,1,1,1,0
0.071628220,1,1,0,0
0.073049360,0,1,0,0
0.073058380,0,0,0,0
0.073095800,0,0,0,1
0.073111780,0,0,0,0
0.073518840,0,0,1,0
0.073526460,0,0,0,0
0.073567620,0,0,1,0
0.073575200,0,0,0,0
0.073616360,0,0,1,0
0.073624100,0,0,0,0
0.075059800,1,0,0,0
0.075068820,1,1,0,0
0.075105540,1,1,0,1
0.075121540,1,1,0,0
0.075528360,1,1,1,0
0.075535960,1,1,0,0
0.075577180,1,1,1,0
0.075584780,1,1,0,0
0.075625860,1,1,1,0
0.075633600,1,1,0,0
0.077060620,0,1,0,0
0.077069640,0,0,0,0
0.077107120,0,0,0,1
0.077123100,0,0,0,0
0.077529920,0,0,1,0
0.077537520,0,0,0,0
0.077578680,0,0,1,0
0.077586280,0,0,0,0
0.077627500,0,0,1,0
0.077635220,0,0,0,0
0.079049360,1,0,0,0
0.079058500,1,1,0,0
0.079095240,1,1,0,1
0.079111240,1,1,0,0
0.079518300,1,1,1,0
0.079525900,1,1,0,0
0.079567120,1,1,1,0
0.079574720,1,1,0,0
0.079615800,1,1,1,0
0.079623540,1,1,0,0
0.081048960,0,1,0,0
0.081057960,0,0,0,0
0.081095240,0,0,0,1
0.081111240,0,0,0,0
0.081518300,0,0,1,0
0.081525920,0,0,0,0
0.081567000,0,0,1,0
0.081574600,0,0,0,0
0.081615820,0,0,1,0
0.081623540,0,0,0,0
0.083049220,1,0,0,0
0.083058320,1,1,0,0
0.083095060,1,1,0,1
0.083111040,1,1,0,0
0.083518240,1,1,1,0
0.083525860,1,1,0,0
0.083566940,1,1,1,0
0.083574540,1,1,0,0
0.083615680,1,1,1,0
0.083623420,1,1,0,0
0.085060160,0,1,0,0
0.085069220,0,0,0,0
0.085106560,0,0,0,1
0.085122560,0,0,0,0
0.085529500,0,0,1,0
0.085537100,0,0,0,0
0.085578320,0,0,1,0
0.085585920,0,0,0,0
0.085627000,0,0,1,0
0.085634740,0,0,0,0
0.087062540,1,0,0,0
0.087071580,1,1,0,0
0.087108380,1,1,0,1
0.087124380,1,1,0,0
0.087531300,1,1,1,0
0.087538920,1,1,0,0
0.087580000,1,1,1,0
0.087587600,1,1,0,0
0.087628820,1,1,1,0
0.087636560,1,1,0,0
0.089063940,0,1,0,0
0.089072920,0,0,0,0
0.089110380,0,0,0,1
0.089126380,0,0,0,0
0.089533680,0,0,1,0
0.089541300,0,0,0,0
0.089582380,0,0,1,0
0.089589980,0,0,0,0
0.089631140,0,0,1,0
0.089638860,0,0,0,0
0.091049080,1,0,0,0
0.091058220,1,1,0,0
0.091094760,1,1,0,1
0.091110740,1,1,0,0
0.091517680,1,1,1,0
0.091525300,1,1,0,0
0.091566440,1,1,1,0
0.091574040,1,1,0,0
0.091615260,1,1,1,0
0.091623000,1,1,0,0
0.093059080,0,1,0,0
0.093068100,0,0,0,0
0.093105440,0,0,0,1
0.093121440,0,0,0,0
0.093528180,0,0,1,0
0.093535800,0,0,0,0
0.093577020,0,0,1,0
0.093584620,0,0,0,0
0.093625760,0,0,1,0
0.093633500,0,0,0,0
0.095049280,1,0,0,0
0.095058400,1,1,0,0
0.095095260,1,1,0,1
0.095111260,1,1,0,0
0.095518200,1,1,1,0
0.095525800,1,1,0,0
0.095567020,1,1,1,0
0.095574620,1,1,0,0
0.095615700,1,1,1,0
0.095623440,1,1,0,0
0.097048700,0,1,0,0
0.097057740,0,0,0,0
0.097095020,0,0,0,1
0.097111020,0,0,0,0
0.097518000,0,0,1,0
0.097525620,0,0,0,0
0.097566840,0,0,1,0
0.097574440,0,0,0,0
0.097615520,0,0,1,0
0.097623240,0,0,0,0
0.099049180,1,0,0,0
0.099058220,1,1,0,0
0.099095020,1,1,0,1
0.099111000,1,1,0,0
0.099517820,1,1,1,0
0.099525440,1,1,0,0
0.099566520,1,1,1,0
0.099574120,1,1,0,0
0.099615340,1,1,1,0
0.099623080,1,1,0,0
0.101048780,0,1,0,0
0.101057740,0,0,0,0
0.101095140,0,0,0,1
0.101111140,0,0,0,0
0.101509640,0,0,1,0
0.101517260,0,0,0,0
0.101558380,0,0,1,0
0.101566000,0,0,0,0
0.101607220,0,0,1,0
0.101614960,0,0,0,0
0.103062220,1,0,0,0
0.103071360,1,1,0,0
0.103108160,1,1,0,1
0.103124140,1,1,0,0
0.103522880,1,1,1,0
0.103530520,1,1,0,0
0.103571580,1,1,1,0
0.103579200,1,1,0,0
0.103620400,1,1,1,0
0.103628160,1,1,0,0
0.105048680,0,1,0,0
0.105057740,0,0,0,0
0.105094960,0,0,0,1
0.105110960,0,0,0,0
0.105509580,0,0,1,0
0.105517200,0,0,0,0
0.105558280,0,0,1,0
0.105565880,0,0,0,0
0.105607040,0,0,1,0
0.105614780,0,0,0,0
0.107059320,1,0,0,0
0.107068420,1,1,0,0
0.107105280,1,1,0,1
0.107121280,1,1,0,0
0.107519820,1,1,1,0
0.107527460,1,1,0,0
0.107568520,1,1,1,0
0.107576140,1,1,0,0
0.107617360,1,1,1,0
0.107625100,1,1,0,0
0.109048700,0,1,0,0
0.109057760,0,0,0,0
0.109095240,0,0,0,1
0.109111220,0,0,0,0
0.109509900,0,0,1,0
0.109517540,0,0,0,0
0.109558720,0,0,1,0
0.109566340,0,0,0,0
0.109607420,0,0,1,0
0.109615180,0,0,0,0
0.111060900,1,0,0,0
0.111069940,1,1,0,0
0.111106740,1,1,0,1
0.111122740,1,1,0,0
0.111521300,1,1,1,0
0.111528920,1,1,0,0
0.111570120,1,1,1,0
0.111577720,1,1,0,0
0.111618800,1,1,1,0
0.111626560,1,1,0,0
0.113065540,0,1,0,0
0.113074600,0,0,0,0
0.113111820,0,0,0,1
0.113127820,0,0,0,0
0.113526620,0,0,1,0
0.113534240,0,0,0,0
0.113575320,0,0,1,0
0.113582920,0,0,0,0
0.113624200,0,0,1,0
0.113631940,0,0,0,0
0.115048660,1,0,0,0
0.115057780,1,1,0,0
0.115094460,1,1,0,1
0.115110440,1,1,0,0
0.115509060,1,1,1,0
0.115516700,1,1,0,0
0.115557820,1,1,1,0
0.115565420,1,1,0,0
0.115606640,1,1,1,0
0.115614380,1,1,0,0
0.117063400,0,1,0,0
0.117072480,0,0,0,0
0.117109960,0,0,0,1
0.117125960,0,0,0,0
0.117524640,0,0,1,0
0.117532260,0,0,0,0
0.117573460,0,0,1,0
0.117581060,0,0,0,0
0.117622140,0,0,1,0
0.117629900,0,0,0,0
0.119046740,1,0,0,0
0.119055860,1,1,0,0
0.119092600,1,1,0,1
0.119108580,1,1,0,0
0.119507380,1,1,1,0
0.119515020,1,1,0,0
0.119556080,1,1,1,0
0.119563700,1,1,0,0
0.119604900,1,1,1,0
0.119612660,1,1,0,0
0.121059740,0,1,0,0
0.121068700,0,0,0,0
0.121106040,0,0,0,1
0.121122020,0,0,0,0
0.121520780,0,0,1,0
0.121528400,0,0,0,0
0.121569600,0,0,1,0
0.121577200,0,0,0,0
0.121618300,0,0,1,0
0.121626040,0,0,0,0
0.123048640,1,0,0,0
0.123057680,1,1,0,0
0.123094540,1,1,0,1
0.123110540,1,1,0,0
0.123509080,1,1,1,0
0.123516720,1,1,0,0
0.123557780,1,1,1,0
0.123565400,1,1,0,0
0.123606540,1,1,1,0
0.123614300,1,1,0,0
0.125048260,0,1,0,0
0.125057280,0,0,0,0
0.125094740,0,0,0,1
0.125110740,0,0,0,0
0.125509160,0,0,1,0
0.125516800,0,0,0,0
0.125557860,0,0,1,0
0.125565480,0,0,0,0
0.125606620,0,0,1,0
0.125614360,0,0,0,0
0.127048440,1,0,0,0
0.127057520,1,1,0,0
0.127094380,1,1,0,1
0.127110360,1,1,0,0
0.127509100,1,1,1,0
0.127516740,1,1,0,0
0.127557800,1,1,1,0
0.127565420,1,1,0,0
0.127606620,1,1,1,0
0.127614380,1,1,0,0
0.129048080,0,1,0,0
0.129057160,0,0,0,0
0.129094440,0,0,0,1
0.129110440,0,0,0,0
0.129509120,0,0,1,0
0.129516740,0,0,0,0
0.129557940,0,0,1,0
0.129565560,0,0,0,0
0.129606640,0,0,1,0
0.129614380,0,0,0,0
0.131062800,1,0,0,0
0.131071920,1,1,0,0
0.131108580,1,1,0,1
0.131124560,1,1,0,0
0.131523500,1,1,1,0
0.131531140,1,1,0,0
0.131572200,1,1,1,0
0.131579800,1,1,0,0
0.131620960,1,1,1,0
0.131628700,1,1,0,0
0.133047500,0,1,0,0
0.133056500,0,0,0,0
0.133093900,0,0,0,1
0.133109900,0,0,0,0
0.133508380,0,0,1,0
0.133516020,0,0,0,0
0.133557140,0,0,1,0
0.133564760,0,0,0,0
0.133605960,0,0,1,0
0.133613700,0,0,0,0
0.135061600,1,0,0,0
0.135070740,1,1,0,0
0.135107420,1,1,0,1
0.135123400,1,1,0,0
0.135521840,1,1,1,0
0.135529460,1,1,0,0
0.135570660,1,1,1,0
0.135578260,1,1,0,0
0.135619400,1,1,1,0
0.135627160,1,1,0,0
0.137046240,0,1,0,0
0.137055260,0,0,0,0
0.137092740,0,0,0,1
0.137108720,0,0,0,0
0.137507100,0,0,1,0
0.137514720,0,0,0,0
0.137555840,0,0,1,0
0.137563460,0,0,0,0
0.137604600,0,0,1,0
0.137612340,0,0,0,0
0.139059460,1,0,0,0
0.139068500,1,1,0,0
0.139105240,1,1,0,1
0.139121240,1,1,0,0
0.139519920,1,1,1,0
0.139527540,1,1,0,0
0.139568680,1,1,1,0
0.139576280,1,1,0,0
0.139617500,1,1,1,0
0.139625240,1,1,0,0
0.141061060,0,1,0,0
0.141070020,0,0,0,0
0.141107380,0,0,0,1
0.141123360,0,0,0,0
0.141522120,0,0,1,0
0.141529740,0,0,0,0
0.141570860,0,0,1,0
0.141578480,0,0,0,0
0.141619680,0,0,1,0
0.141627420,0,0,0,0
0.143048240,1,0,0,0
0.143057340,1,1,0,0
0.143094060,1,1,0,1
0.143110060,1,1,0,0
0.143508740,1,1,1,0
0.143516380,1,1,0,0
0.143557440,1,1,1,0
0.143565040,1,1,0,0
0.143606260,1,1,1,0
0.143614000,1,1,0,0
0.145047780,0,1,0,0
0.145056740,0,0,0,0
0.145094320,0,0,0,1
0.145110320,0,0,0,0
0.145508820,0,0,1,0
0.145516440,0,0,0,0
0.145557640,0,0,1,0
0.145565240,0,0,0,0
0.145606340,0,0,1,0
0.145614080,0,0,0,0
0.147062500,1,0,0,0
0.147071540,1,1,0,0
0.147108520,1,1,0,1
0.147124520,1,1,0,0
0.147523380,1,1,1,0
0.147531020,1,1,0,0
0.147572080,1,1,1,0
0.147579680,1,1,0,0
0.147620900,1,1,1,0
0.147628660,1,1,0,0
0.149046040,0,1,0,0
0.149055060,0,0,0,0
0.149092400,0,0,0,1
0.149108400,0,0,0,0
0.149507140,0,0,1,0
0.149514760,0,0,0,0
0.149555840,0,0,1,0
0.149563440,0,0,0,0
0.149604660,0,0,1,0
0.149612400,0,0,0,0
0.151060360,1,0,0,0
0.151069440,1,1,0,0
0.151106300,1,1,0,1
0.151122280,1,1,0,0
0.151520780,1,1,1,0
0.151528400,1,1,0,0
0.151569600,1,1,1,0
0.151577200,1,1,0,0
0.151618300,1,1,1,0
0.151626040,1,1,0,0
0.153062840,0,1,0,0
0.153071840,0,0,0,0
0.153109180,0,0,0,1
0.153125160,0,0,0,0
0.153523780,0,0,1,0
0.153531400,0,0,0,0
0.153572500,0,0,1,0
0.153580080,0,0,0,0
0.153621300,0,0,1,0
0.153629060,0,0,0,0
0.155048140,1,0,0,0
0.155057320,1,1,0,0
0.155094180,1,1,0,1
0.155110180,1,1,0,0
0.155508840,1,1,1,0
0.155516480,1,1,0,0
0.155557540,1,1,1,0
0.155565160,1,1,0,0
0.155606360,1,1,1,0
0.155614120,1,1,0,0
0.157047740,0,1,0,0
0.157056720,0,0,0,0
0.157094200,0,0,0,1
0.157110180,0,0,0,0
0.157508800,0,0,1,0
0.157516420,0,0,0,0
0.157557620,0,0,1,0
0.157565240,0,0,0,0
0.157606320,0,0,1,0
0.157614060,0,0,0,0
0.159047820,1,0,0,0
0.159056900,1,1,0,0
0.159093700,1,1,0,1
0.159109700,1,1,0,0
0.159508420,1,1,1,0
0.159516060,1,1,0,0
0.159557260,1,1,1,0
0.159564860,1,1,0,0
0.159605960,1,1,1,0
0.159613700,1,1,0,0
0.161047460,0,1,0,0
0.161056420,0,0,0,0
0.161093900,0,0,0,1
0.161109880,0,0,0,0
0.161508520,0,0,1,0
0.161516140,0,0,0,0
0.161557260,0,0,1,0
0.161564860,0,0,0,0
0.161606080,0,0,1,0
0.161613820,0,0,0,0
0.163062180,1,0,0,0
0.163071240,1,1,0,0
0.163108040,1,1,0,1
0.163124020,1,1,0,0
0.163531380,1,1,1,0
0.163539020,1,1,0,0
0.163580140,1,1,1,0
0.163587760,1,1,0,0
0.163628900,1,1,1,0
0.163636660,1,1,0,0
0.165063680,0,1,0,0
0.165072700,0,0,0,0
0.165109860,0,0,0,1
0.165125840,0,0,0,0
0.165532900,0,0,1,0
0.165540520,0,0,0,0
0.165588900,0,0,1,0
0.165596520,0,0,0,0
0.165630480,0,0,1,0
0.165638220,0,0,0,0
0.167045800,1,0,0,0
0.167054940,1,1,0,0
0.167091660,1,1,0,1
0.167107660,1,1,0,0
0.167514720,1,1,1,0
0.167522340,1,1,0,0
0.167563420,1,1,1,0
0.167571020,1,1,0,0
0.167612240,1,1,1,0
0.167619980,1,1,0,0
0.169047400,0,1,0,0
0.169056460,0,0,0,0
0.169093740,0,0,0,1
0.169109740,0,0,0,0
0.169516860,0,0,1,0
0.169524480,0,0,0,0
0.169565540,0,0,1,0
0.169573160,0,0,0,0
0.169614360,0,0,1,0
0.169622120,0,0,0,0
0.171047520,1,0,0,0
0.171056580,1,1,0,0
0.171093380,1,1,0,1
0.171109360,1,1,0,0
0.171516540,1,1,1,0
0.171524180,1,1,0,0
0.171565360,1,1,1,0
0.171572980,1,1,0,0
0.171614060,1,1,1,0
0.171621820,1,1,0,0
0.173046800,0,1,0,0
0.173055780,0,0,0,0
0.173093200,0,0,0,1
0.173109180,0,0,0,0
0.173516440,0,0,1,0
0.173524060,0,0,0,0
0.173565180,0,0,1,0
0.173572800,0,0,0,0
0.173613940,0,0,1,0
0.173621680,0,0,0,0
0.175047440,1,0,0,0
0.175056480,1,1,0,0
0.175093340,1,1,0,1
0.175109320,1,1,0,0
0.175516300,1,1,1,0
0.175523940,1,1,0,0
0.175565060,1,1,1,0
0.175572700,1,1,0,0
0.175613840,1,1,1,0
0.175621580,1,1,0,0
0.177046840,0,1,0,0
0.177055860,0,0,0,0
0.177093080,0,0,0,1
0.177109080,0,0,0,0
0.177516460,0,0,1,0
0.177524080,0,0,0,0
0.177565200,0,0,1,0
0.177572820,0,0,0,0
0.177613960,0,0,1,0
0.177621700,0,0,0,0
0.179047620,1,0,0,0
0.179056680,1,1,0,0
0.179093420,1,1,0,1
0.179109400,1,1,0,0
0.179516640,1,1,1,0
0.179524280,1,1,0,0
0.179565400,1,1,1,0
0.179573020,1,1,0,0
0.179614160,1,1,1,0
0.179621900,1,1,0,0
0.181058280,0,1,0,0
0.181067320,0,0,0,0
0.181104600,0,0,0,1
0.181120600,0,0,0,0
0.181532340,0,0,1,0
0.181539960,0,0,0,0
0.181581040,0,0,1,0
0.181588660,0,0,0,0
0.181629860,0,0,1,0
0.181637600,0,0,0,0
0.183045500,1,0,0,0
0.183054560,1,1,0,0
0.183091480,1,1,0,1
0.183107480,1,1,0,0
0.183514340,1,1,1,0
0.183521980,1,1,0,0
0.183563100,1,1,1,0
0.183570720,1,1,0,0
0.183611860,1,1,1,0
0.183619620,1,1,0,0
0.185047100,0,1,0,0
0.185056080,0,0,0,0
0.185093380,0,0,0,1
0.185109360,0,0,0,0
0.185516540,0,0,1,0
0.185524160,0,0,0,0
0.185565240,0,0,1,0
0.185572860,0,0,0,0
0.185614060,0,0,1,0
0.185621800,0,0,0,0
0.187047220,1,0,0,0
0.187056280,1,1,0,0
0.187093060,1,1,0,1
0.187109060,1,1,0,0
0.187516040,1,1,1,0
0.187523680,1,1,0,0
0.187564800,1,1,1,0
0.187572440,1,1,0,0
0.187613560,1,1,1,0
0.187621320,1,1,0,0
0.189045280,0,1,0,0
0.189054360,0,0,0,0
0.189091640,0,0,0,1
0.189107640,0,0,0,0
0.189514940,0,0,1,0
0.189522560,0,0,0,0
0.189563760,0,0,1,0
0.189571380,0,0,0,0
0.189612440,0,0,1,0
0.189620200,0,0,0,0
0.191057620,1,0,0,0
0.191066660,1,1,0,0
0.191103520,1,1,0,1
0.191119520,1,1,0,0
0.191526380,1,1,1,0
0.191534020,1,1,0,0
0.191575080,1,1,1,0
0.191582700,1,1,0,0
0.191623900,1,1,1,0
0.191631640,1,1,0,0
0.193046840,0,1,0,0
0.193055800,0,0,0,0
0.193093280,0,0,0,1
0.193109280,0,0,0,0
0.193516520,0,0,1,0
0.193524140,0,0,0,0
0.193565200,0,0,1,0
0.193572840,0,0,0,0
0.193614040,0,0,1,0
0.193621760,0,0,0,0
0.195058280,1,0,0,0
0.195067360,1,1,0,0
0.195104160,1,1,0,1
0.195120160,1,1,0,0
0.195527260,1,1,1,0
0.195534900,1,1,0,0
0.195535580,1,1,1,0
0.195535600,1,1,0,0
0.195576100,1,1,1,0
0.195583700,1,1,0,0
0.195624800,1,1,1,0
0.195632540,1,1,0,0
0.197060120,0,1,0,0
0.197069200,0,0,0,0
0.197106360,0,0,0,1
0.197122360,0,0,0,0
