Time [s],Channel 0,Channel 1,Channel 2,Channel 3,Channel 4,Channel 5,Channel 6,Channel 7
-2.328054200,0,0,0,0,0,0,0,0
-0.004068080,0,0,0,0,0,1,0,0
-0.004058480,0,0,0,0,0,0,0,0
-0.000020080,1,0,0,0,0,0,0,0
-0.000012360,1,0,0,0,0,0,0,1
0.000000000,1,1,0,0,0,0,0,1
0.000004360,1,1,1,0,0,0,0,1
0.000021640,1,1,1,0,0,0,0,0
0.000087240,1,1,1,0,1,0,0,0
0.000103560,1,1,1,0,0,0,0,0
0.000380960,1,1,1,1,0,0,0,0
0.000613440,1,1,1,1,0,1,0,0
0.000633000,1,1,1,1,0,0,0,0
0.000639400,1,1,1,1,0,0,1,0
0.000646400,1,1,1,1,0,0,0,0
0.000658440,1,1,1,0,0,0,0,0
0.000659480,1,1,0,0,0,0,0,0
0.001967840,0,1,0,0,0,0,0,0
0.001975480,0,1,0,0,0,0,0,1
0.001985000,0,0,0,0,0,0,0,1
0.001985760,0,0,1,0,0,0,0,1
0.002010040,0,0,1,0,0,0,0,0
0.002033480,0,0,1,0,1,0,0,0
0.002049920,0,0,1,0,0,0,0,0
0.002280640,0,0,1,1,0,0,0,0
0.002483320,0,0,1,1,0,1,0,0
0.002502880,0,0,1,1,0,0,0,0
0.002505480,0,0,1,0,0,0,0,0
0.002506200,0,0,0,0,0,0,0,0
0.002508880,0,0,0,0,0,0,1,0
0.002521920,0,0,0,0,0,0,0,0
0.003965040,1,0,0,0,0,0,0,0
0.003972640,1,0,0,0,0,0,0,1
0.003980760,1,1,0,0,0,0,0,1
0.003981440,1,1,1,0,0,0,0,1
0.004007200,1,1,1,0,0,0,0,0
0.004024800,1,1,1,0,1,0,0,0
0.004041280,1,1,1,0,0,0,0,0
0.004269120,1,1,1,1,0,0,0,0
0.004472960,1,1,1,1,0,1,0,0
0.004492560,1,1,1,1,0,0,0,0
0.004498520,1,1,1,1,0,0,1,0
0.004505520,1,1,1,1,0,0,0,0
0.004509480,1,1,1,0,0,0,0,0
0.004510160,1,1,0,0,0,0,0,0
0.005955680,0,1,0,0,0,0,0,0
0.005963360,0,1,0,0,0,0,0,1
0.005970600,0,0,0,0,0,0,0,1
0.005971360,0,0,1,0,0,0,0,1
0.005997920,0,0,1,0,0,0,0,0
0.006012200,0,0,1,0,1,0,0,0
0.006028680,0,0,1,0,0,0,0,0
0.006250040,0,0,1,1,0,0,0,0
0.006449840,0,0,1,1,0,1,0,0
0.006456920,0,0,1,0,0,1,0,0
0.006457640,0,0,0,0,0,1,0,0
0.006469400,0,0,0,0,0,0,0,0
0.006475800,0,0,0,0,0,0,1,0
0.006482800,0,0,0,0,0,0,0,0
0.007981120,1,0,0,0,0,0,0,0
0.007988760,1,0,0,0,0,0,0,1
0.007995720,1,1,0,0,0,0,0,1
0.007996440,1,1,1,0,0,0,0,1
0.008023320,1,1,1,0,0,0,0,0
0.008037320,1,1,1,0,1,0,0,0
0.008053760,1,1,1,0,0,0,0,0
0.008266400,1,1,1,1,0,0,0,0
0.008470280,1,1,1,1,0,1,0,0
0.008473720,1,1,1,0,0,1,0,0
0.008474400,1,1,0,0,0,1,0,0
0.008489880,1,1,0,0,0,0,0,0
0.008495840,1,1,0,0,0,0,1,0
0.008502840,1,1,0,0,0,0,0,0
0.009946720,0,1,0,0,0,0,0,0
0.009954280,0,1,0,0,0,0,0,1
0.009961640,0,0,0,0,0,0,0,1
0.009962400,0,0,1,0,0,0,0,1
0.009988840,0,0,1,0,0,0,0,0
0.010003360,0,0,1,0,1,0,0,0
0.010019800,0,0,1,0,0,0,0,0
0.010240680,0,0,1,1,0,0,0,0
0.010445080,0,0,1,1,0,1,0,0
0.010454440,0,0,1,0,0,1,0,0
0.010455120,0,0,0,0,0,1,0,0
0.010464640,0,0,0,0,0,0,0,0
0.010470600,0,0,0,0,0,0,1,0
0.010477640,0,0,0,0,0,0,0,0
0.011947200,1,0,0,0,0,0,0,0
0.011954880,1,0,0,0,0,0,0,1
0.011961600,1,1,0,0,0,0,0,1
0.011962320,1,1,1,0,0,0,0,1
0.011989440,1,1,1,0,0,0,0,0
0.012003240,1,1,1,0,1,0,0,0
0.012019720,1,1,1,0,0,0,0,0
0.012238320,1,1,1,1,0,0,0,0
0.012441120,1,1,1,1,0,1,0,0
0.012444040,1,1,1,0,0,1,0,0
0.012444720,1,1,0,0,0,1,0,0
0.012460680,1,1,0,0,0,0,0,0
0.012467040,1,1,0,0,0,0,1,0
0.012474040,1,1,0,0,0,0,0,0
0.013959040,0,1,0,0,0,0,0,0
0.013966720,0,1,0,0,0,0,0,1
0.013973640,0,0,0,0,0,0,0,1
0.013974400,0,0,1,0,0,0,0,1
0.014001280,0,0,1,0,0,0,0,0
0.014014160,0,0,1,0,1,0,0,0
0.014030600,0,0,1,0,0,0,0,0
0.014248800,0,0,1,1,0,0,0,0
0.014448920,0,0,1,0,0,0,0,0
0.014449640,0,0,0,0,0,0,0,0
0.014450680,0,0,0,0,0,1,0,0
0.014470240,0,0,0,0,0,0,0,0
0.014476360,0,0,0,0,0,0,1,0
0.014483360,0,0,0,0,0,0,0,0
0.015955400,1,0,0,0,0,0,0,0
0.015963000,1,0,0,0,0,0,0,1
0.015969800,1,1,0,0,0,0,0,1
0.015970520,1,1,1,0,0,0,0,1
0.015997560,1,1,1,0,0,0,0,0
0.016013360,1,1,1,0,1,0,0,0
0.016029840,1,1,1,0,0,0,0,0
0.016241040,1,1,1,1,0,0,0,0
0.016445520,1,1,1,1,0,1,0,0
0.016465120,1,1,1,1,0,0,0,0
0.016471080,1,1,1,1,0,0,1,0
0.016471840,1,1,1,0,0,0,1,0
0.016472560,1,1,0,0,0,0,1,0
0.016478080,1,1,0,0,0,0,0,0
0.017959200,0,1,0,0,0,0,0,0
0.017966840,0,1,0,0,0,0,0,1
0.017973800,0,0,0,0,0,0,0,1
0.017974560,0,0,1,0,0,0,0,1
0.018001400,0,0,1,0,0,0,0,0
0.018016120,0,0,1,0,1,0,0,0
0.018032600,0,0,1,0,0,0,0,0
0.018251000,0,0,1,1,0,0,0,0
0.018452240,0,0,1,1,0,1,0,0
0.018456760,0,0,1,0,0,1,0,0
0.018457440,0,0,0,0,0,1,0,0
0.018471840,0,0,0,0,0,0,0,0
0.018478160,0,0,0,0,0,0,1,0
0.018485160,0,0,0,0,0,0,0,0
0.019959600,1,0,0,0,0,0,0,0
0.019967240,1,0,0,0,0,0,0,1
0.019974600,1,1,0,0,0,0,0,1
0.019975280,1,1,1,0,0,0,0,1
0.020001800,1,1,1,0,0,0,0,0
0.020016160,1,1,1,0,1,0,0,0
0.020032600,1,1,1,0,0,0,0,0
0.020246480,1,1,1,1,0,0,0,0
0.020446080,1,1,1,0,0,0,0,0
0.020446760,1,1,0,0,0,0,0,0
0.020448640,1,1,0,0,0,1,0,0
0.020468240,1,1,0,0,0,0,0,0
0.020474560,1,1,0,0,0,0,1,0
0.020481560,1,1,0,0,0,0,0,0
0.021959880,0,1,0,0,0,0,0,0
0.021967520,0,1,0,0,0,0,0,1
0.021974760,0,0,0,0,0,0,0,1
0.021975560,0,0,1,0,0,0,0,1
0.022002520,0,0,1,0,0,0,0,0
0.022021200,0,0,1,0,1,0,0,0
0.022037680,0,0,1,0,0,0,0,0
0.022263080,0,0,1,1,0,0,0,0
0.022466120,0,0,1,1,0,1,0,0
0.022468840,0,0,1,0,0,1,0,0
0.022469520,0,0,0,0,0,1,0,0
0.022485680,0,0,0,0,0,0,0,0
0.022491640,0,0,0,0,0,0,1,0
0.022498640,0,0,0,0,0,0,0,0
0.023963840,1,0,0,0,0,0,0,0
0.023971400,1,0,0,0,0,0,0,1
0.023978920,1,1,0,0,0,0,0,1
0.023979600,1,1,1,0,0,0,0,1
0.024006080,1,1,1,0,0,0,0,0
0.024024840,1,1,1,0,1,0,0,0
0.024041320,1,1,1,0,0,0,0,0
0.024261520,1,1,1,1,0,0,0,0
0.024462960,1,1,1,1,0,1,0,0
0.024469680,1,1,1,0,0,1,0,0
0.024470360,1,1,0,0,0,1,0,0
0.024482520,1,1,0,0,0,0,0,0
0.024488760,1,1,0,0,0,0,1,0
0.024495760,1,1,0,0,0,0,0,0
0.025964080,0,1,0,0,0,0,0,0
0.025971680,0,1,0,0,0,0,0,1
0.025979600,0,0,0,0,0,0,0,1
0.025980360,0,0,1,0,0,0,0,1
0.026006360,0,0,1,0,0,0,0,0
0.026020120,0,0,1,0,1,0,0,0
0.026036600,0,0,1,0,0,0,0,0
0.026254680,0,0,1,1,0,0,0,0
0.026458240,0,0,1,1,0,1,0,0
0.026458480,0,0,1,0,0,1,0,0
0.026459200,0,0,0,0,0,1,0,0
0.026477800,0,0,0,0,0,0,0,0
0.026484160,0,0,0,0,0,0,1,0
0.026491160,0,0,0,0,0,0,0,0
0.027964120,1,0,0,0,0,0,0,0
0.027971800,1,0,0,0,0,0,0,1
0.027979040,1,1,0,0,0,0,0,1
0.027979720,1,1,1,0,0,0,0,1
0.028006480,1,1,1,0,0,0,0,0
0.028023400,1,1,1,0,1,0,0,0
0.028039840,1,1,1,0,0,0,0,0
0.028256520,1,1,1,1,0,0,0,0
0.028458080,1,1,1,1,0,1,0,0
0.028463720,1,1,1,0,0,1,0,0
0.028464400,1,1,0,0,0,1,0,0
0.028477640,1,1,0,0,0,0,0,0
0.028484040,1,1,0,0,0,0,1,0
0.028491040,1,1,0,0,0,0,0,0
0.029949080,0,1,0,0,0,0,0,0
0.029956760,0,1,0,0,0,0,0,1
0.029964800,0,0,0,0,0,0,0,1
0.029965560,0,0,1,0,0,0,0,1
0.029991440,0,0,1,0,0,0,0,0
0.030005240,0,0,1,0,1,0,0,0
0.030021680,0,0,1,0,0,0,0,0
0.030242760,0,0,1,1,0,0,0,0
0.030448160,0,0,1,1,0,1,0,0
0.030452040,0,0,1,0,0,1,0,0
0.030453840,0,0,0,0,0,1,0,0
0.030467720,0,0,0,0,0,0,0,0
0.030474080,0,0,0,0,0,0,1,0
0.030481080,0,0,0,0,0,0,0,0
0.031960760,1,0,0,0,0,0,0,0
0.031968440,1,0,0,0,0,0,0,1
0.031974920,1,1,0,0,0,0,0,1
0.031976720,1,1,1,0,0,0,0,1
0.032003120,1,1,1,0,0,0,0,0
0.032017640,1,1,1,0,1,0,0,0
0.032034080,1,1,1,0,0,0,0,0
0.032253960,1,1,1,1,0,0,0,0
0.032460120,1,1,1,1,0,1,0,0
0.032464520,1,1,1,0,0,1,0,0
0.032465200,1,1,0,0,0,1,0,0
0.032479680,1,1,0,0,0,0,0,0
0.032485800,1,1,0,0,0,0,1,0
0.032492800,1,1,0,0,0,0,0,0
0.033957600,0,1,0,0,0,0,0,0
0.033965240,0,1,0,0,0,0,0,1
0.033972000,0,0,0,0,0,0,0,1
0.033972800,0,0,1,0,0,0,0,1
0.033999920,0,0,1,0,0,0,0,0
0.034013480,0,0,1,0,1,0,0,0
0.034029920,0,0,1,0,0,0,0,0
0.034238920,0,0,1,1,0,0,0,0
0.034443520,0,0,1,1,0,1,0,0
0.034446080,0,0,1,0,0,1,0,0
0.034446760,0,0,0,0,0,1,0,0
0.034463080,0,0,0,0,0,0,0,0
0.034469080,0,0,0,0,0,0,1,0
0.034476080,0,0,0,0,0,0,0,0
0.035960640,1,0,0,0,0,0,0,0
0.035968320,1,0,0,0,0,0,0,1
0.035976160,1,1,0,0,0,0,0,1
0.035976840,1,1,1,0,0,0,0,1
0.036003000,1,1,1,0,0,0,0,0
0.036017800,1,1,1,0,1,0,0,0
0.036034240,1,1,1,0,0,0,0,0
0.036256520,1,1,1,1,0,0,0,0
0.036461560,1,1,1,1,0,1,0,0
0.036463840,1,1,1,0,0,1,0,0
0.036464560,1,1,0,0,0,1,0,0
0.036481080,1,1,0,0,0,0,0,0
0.036487200,1,1,0,0,0,0,1,0
0.036494200,1,1,0,0,0,0,0,0
0.037947480,0,1,0,0,0,0,0,0
0.037955080,0,1,0,0,0,0,0,1
0.037962080,0,0,0,0,0,0,0,1
0.037962840,0,0,1,0,0,0,0,1
0.037989760,0,0,1,0,0,0,0,0
0.038020400,0,0,1,0,1,0,0,0
0.038036800,0,0,1,0,0,0,0,0
0.038254840,0,0,1,1,0,0,0,0
0.038456320,0,0,1,1,0,1,0,0
0.038459360,0,0,1,0,0,1,0,0
0.038460080,0,0,0,0,0,1,0,0
0.038475840,0,0,0,0,0,0,0,0
0.038482280,0,0,0,0,0,0,1,0
0.038489320,0,0,0,0,0,0,0,0
0.039955000,1,0,0,0,0,0,0,0
0.039962680,1,0,0,0,0,0,0,1
0.039970040,1,1,0,0,0,0,0,1
0.039970760,1,1,1,0,0,0,0,1
0.039997360,1,1,1,0,0,0,0,0
0.040010440,1,1,1,0,1,0,0,0
0.040026880,1,1,1,0,0,0,0,0
0.040243040,1,1,1,1,0,0,0,0
0.040447520,1,1,1,1,0,1,0,0
0.040459400,1,1,1,0,0,1,0,0
0.040460120,1,1,0,0,0,1,0,0
0.040467080,1,1,0,0,0,0,0,0
0.040473440,1,1,0,0,0,0,1,0
0.040480440,1,1,0,0,0,0,0,0
0.041951080,0,1,0,0,0,0,0,0
0.041958640,0,1,0,0,0,0,0,1
0.041966160,0,0,0,0,0,0,0,1
0.041966920,0,0,1,0,0,0,0,1
0.041993320,0,0,1,0,0,0,0,0
0.042008720,0,0,1,0,1,0,0,0
0.042025120,0,0,1,0,0,0,0,0
0.042245440,0,0,1,1,0,0,0,0
0.042458280,0,0,1,1,0,1,0,0
0.042460800,0,0,1,0,0,1,0,0
0.042461480,0,0,0,0,0,1,0,0
0.042477880,0,0,0,0,0,0,0,0
0.042484280,0,0,0,0,0,0,1,0
0.042491280,0,0,0,0,0,0,0,0
0.043955040,1,0,0,0,0,0,0,0
0.043962720,1,0,0,0,0,0,0,1
0.043970120,1,1,0,0,0,0,0,1
0.043970840,1,1,1,0,0,0,0,1
0.043997400,1,1,1,0,0,0,0,0
0.044012520,1,1,1,0,1,0,0,0
0.044028960,1,1,1,0,0,0,0,0
0.044246920,1,1,1,1,0,0,0,0
0.044452160,1,1,1,1,0,1,0,0
0.044458440,1,1,1,0,0,1,0,0
0.044459160,1,1,0,0,0,1,0,0
0.044471720,1,1,0,0,0,0,0,0
0.044477800,1,1,0,0,0,0,1,0
0.044490880,1,1,0,0,0,0,0,0
0.045962560,0,1,0,0,0,0,0,0
0.045970200,0,1,0,0,0,0,0,1
0.045977200,0,0,0,0,0,0,0,1
0.045977960,0,0,1,0,0,0,0,1
0.046004880,0,0,1,0,0,0,0,0
0.046018680,0,0,1,0,1,0,0,0
0.046035120,0,0,1,0,0,0,0,0
0.046251200,0,0,1,1,0,0,0,0
0.046458160,0,0,1,1,0,1,0,0
0.046466200,0,0,1,0,0,1,0,0
0.046466880,0,0,0,0,0,1,0,0
0.046477720,0,0,0,0,0,0,0,0
0.046483840,0,0,0,0,0,0,1,0
0.046490840,0,0,0,0,0,0,0,0
0.047958920,1,0,0,0,0,0,0,0
0.047966520,1,0,0,0,0,0,0,1
0.047973920,1,1,0,0,0,0,0,1
0.047974600,1,1,1,0,0,0,0,1
0.048001200,1,1,1,0,0,0,0,0
0.048015600,1,1,1,0,1,0,0,0
0.048032040,1,1,1,0,0,0,0,0
0.048249960,1,1,1,1,0,0,0,0
0.048449880,1,1,1,1,0,1,0,0
0.048456280,1,1,1,0,0,1,0,0
0.048457000,1,1,0,0,0,1,0,0
0.048469440,1,1,0,0,0,0,0,0
0.048475560,1,1,0,0,0,0,1,0
0.048482560,1,1,0,0,0,0,0,0
0.049962600,0,1,0,0,0,0,0,0
0.049970160,0,1,0,0,0,0,0,1
0.049978400,0,0,0,0,0,0,0,1
0.049979120,0,0,1,0,0,0,0,1
0.050004840,0,0,1,0,0,0,0,0
0.050018840,0,0,1,0,1,0,0,0
0.050035280,0,0,1,0,0,0,0,0
0.050253160,0,0,1,1,0,0,0,0
0.050456040,0,0,1,1,0,1,0,0
0.050461680,0,0,1,0,0,1,0,0
0.050462400,0,0,0,0,0,1,0,0
0.050475560,0,0,0,0,0,0,0,0
0.050481560,0,0,0,0,0,0,1,0
0.050488560,0,0,0,0,0,0,0,0
0.051954080,1,0,0,0,0,0,0,0
0.051961760,1,0,0,0,0,0,0,1
0.051968200,1,1,0,0,0,0,0,1
0.051968880,1,1,1,0,0,0,0,1
0.051996440,1,1,1,0,0,0,0,0
0.052012400,1,1,1,0,1,0,0,0
0.052028840,1,1,1,0,0,0,0,0
0.052247480,1,1,1,1,0,0,0,0
0.052448920,1,1,1,1,0,1,0,0
0.052453680,1,1,1,0,0,1,0,0
0.052454360,1,1,0,0,0,1,0,0
0.052468480,1,1,0,0,0,0,0,0
0.052474720,1,1,0,0,0,0,1,0
0.052481720,1,1,0,0,0,0,0,0
0.053960720,0,1,0,0,0,0,0,0
0.053968360,0,1,0,0,0,0,0,1
0.053976160,0,0,0,0,0,0,0,1
0.053976880,0,0,1,0,0,0,0,1
0.054003040,0,0,1,0,0,0,0,0
0.054016600,0,0,1,0,1,0,0,0
0.054033040,0,0,1,0,0,0,0,0
0.054250840,0,0,1,1,0,0,0,0
0.054452400,0,0,1,1,0,1,0,0
0.054460000,0,0,1,0,0,1,0,0
0.054460680,0,0,0,0,0,1,0,0
0.054471960,0,0,0,0,0,0,0,0
0.054477920,0,0,0,0,0,0,1,0
0.054484920,0,0,0,0,0,0,0,0
0.055965440,1,0,0,0,0,0,0,0
0.055973040,1,0,0,0,0,0,0,1
0.055981120,1,1,0,0,0,0,0,1
0.055981800,1,1,1,0,0,0,0,1
0.056007720,1,1,1,0,0,0,0,0
0.056022600,1,1,1,0,1,0,0,0
0.056039040,1,1,1,0,0,0,0,0
0.056246840,1,1,1,1,0,0,0,0
0.056449720,1,1,1,1,0,1,0,0
0.056457080,1,1,1,0,0,1,0,0
0.056457760,1,1,0,0,0,1,0,0
0.056469280,1,1,0,0,0,0,0,0
0.056475520,1,1,0,0,0,0,1,0
0.056482520,1,1,0,0,0,0,0,0
0.057957480,0,1,0,0,0,0,0,0
0.057965080,0,1,0,0,0,0,0,1
0.057972400,0,0,0,0,0,0,0,1
0.057973160,0,0,1,0,0,0,0,1
0.057999760,0,0,1,0,0,0,0,0
0.058023400,0,0,1,0,1,0,0,0
0.058039840,0,0,1,0,0,0,0,0
0.058258080,0,0,1,1,0,0,0,0
0.058460120,0,0,1,1,0,1,0,0
0.058471080,0,0,1,0,0,1,0,0
0.058471760,0,0,0,0,0,1,0,0
0.058479680,0,0,0,0,0,0,0,0
0.058486040,0,0,0,0,0,0,1,0
0.058493040,0,0,0,0,0,0,0,0
0.059964720,1,0,0,0,0,0,0,0
0.059972360,1,0,0,0,0,0,0,1
0.059979360,1,1,0,0,0,0,0,1
0.059980040,1,1,1,0,0,0,0,1
0.060007040,1,1,1,0,0,0,0,0
0.060031840,1,1,1,0,1,0,0,0
0.060048280,1,1,1,0,0,0,0,0
0.060264360,1,1,1,1,0,0,0,0
0.060467200,1,1,1,1,0,1,0,0
0.060471920,1,1,1,0,0,1,0,0
0.060472640,1,1,0,0,0,1,0,0
0.060486760,1,1,0,0,0,0,0,0
0.060493160,1,1,0,0,0,0,1,0
0.060500200,1,1,0,0,0,0,0,0
0.061962560,0,1,0,0,0,0,0,0
0.061970240,0,1,0,0,0,0,0,1
0.061977480,0,0,0,0,0,0,0,1
0.061978240,0,0,1,0,0,0,0,1
0.062004920,0,0,1,0,0,0,0,0
0.062028560,0,0,1,0,1,0,0,0
0.062044960,0,0,1,0,0,0,0,0
0.062262920,0,0,1,1,0,0,0,0
0.062468720,0,0,1,1,0,1,0,0
0.062470720,0,0,1,0,0,1,0,0
0.062471400,0,0,0,0,0,1,0,0
0.062488280,0,0,0,0,0,0,0,0
0.062494680,0,0,0,0,0,0,1,0
0.062501720,0,0,0,0,0,0,0,0
0.063961520,1,0,0,0,0,0,0,0
0.063969200,1,0,0,0,0,0,0,1
0.063976440,1,1,0,0,0,0,0,1
0.063977120,1,1,1,0,0,0,0,1
0.064003880,1,1,1,0,0,0,0,0
0.064018000,1,1,1,0,1,0,0,0
0.064034440,1,1,1,0,0,0,0,0
0.064257840,1,1,1,1,0,0,0,0
0.064460560,1,1,1,1,0,1,0,0
0.064463600,1,1,1,0,0,1,0,0
0.064464280,1,1,0,0,0,1,0,0
0.064480120,1,1,0,0,0,0,0,0
0.064486120,1,1,0,0,0,0,1,0
0.064493120,1,1,0,0,0,0,0,0
0.065959400,0,1,0,0,0,0,0,0
0.065967040,0,1,0,0,0,0,0,1
0.065974880,0,0,0,0,0,0,0,1
0.065975640,0,0,1,0,0,0,0,1
0.066001720,0,0,1,0,0,0,0,0
0.066020480,0,0,1,0,1,0,0,0
0.066036920,0,0,1,0,0,0,0,0
0.066260280,0,0,1,1,0,0,0,0
0.066462080,0,0,1,1,0,1,0,0
0.066462960,0,0,1,0,0,1,0,0
0.066465400,0,0,0,0,0,1,0,0
0.066481640,0,0,0,0,0,0,0,0
0.066487640,0,0,0,0,0,0,1,0
0.066494640,0,0,0,0,0,0,0,0
0.067956680,1,0,0,0,0,0,0,0
0.067964320,1,0,0,0,0,0,0,1
0.067971560,1,1,0,0,0,0,0,1
0.067972240,1,1,1,0,0,0,0,1
0.067999000,1,1,1,0,0,0,0,0
0.068012000,1,1,1,0,1,0,0,0
0.068028480,1,1,1,0,0,0,0,0
0.068254680,1,1,1,1,0,0,0,0
0.068457560,1,1,1,1,0,1,0,0
0.068461280,1,1,1,0,0,1,0,0
0.068461960,1,1,0,0,0,1,0,0
0.068477080,1,1,0,0,0,0,0,0
0.068483200,1,1,0,0,0,0,1,0
0.068490200,1,1,0,0,0,0,0,0
0.069961840,0,1,0,0,0,0,0,0
0.069969400,0,1,0,0,0,0,0,1
0.069976440,0,0,0,0,0,0,0,1
0.069977200,0,0,1,0,0,0,0,1
0.070004080,0,0,1,0,0,0,0,0
0.070019480,0,0,1,0,1,0,0,0
0.070035920,0,0,1,0,0,0,0,0
0.070254880,0,0,1,1,0,0,0,0
0.070458960,0,0,1,1,0,1,0,0
0.070459640,0,0,1,0,0,1,0,0
0.070460320,0,0,0,0,0,1,0,0
0.070478520,0,0,0,0,0,0,0,0
0.070484720,0,0,0,0,0,0,1,0
0.070491760,0,0,0,0,0,0,0,0
0.071962600,1,0,0,0,0,0,0,0
0.071970200,1,0,0,0,0,0,0,1
0.071977560,1,1,0,0,0,0,0,1
0.071978240,1,1,1,0,0,0,0,1
0.072004880,1,1,1,0,0,0,0,0
0.072020120,1,1,1,0,1,0,0,0
0.072036560,1,1,1,0,0,0,0,0
0.072257000,1,1,1,1,0,0,0,0
0.072460160,1,1,1,1,0,1,0,0
0.072467760,1,1,1,0,0,1,0,0
0.072468480,1,1,0,0,0,1,0,0
0.072479720,1,1,0,0,0,0,0,0
0.072485680,1,1,0,0,0,0,1,0
0.072492720,1,1,0,0,0,0,0,0
0.073958840,0,1,0,0,0,0,0,0
0.073966520,0,1,0,0,0,0,0,1
0.073973560,0,0,0,0,0,0,0,1
0.073974320,0,0,1,0,0,0,0,1
0.074001200,0,0,1,0,0,0,0,0
0.074017000,0,0,1,0,1,0,0,0
0.074033480,0,0,1,0,0,0,0,0
0.074252320,0,0,1,1,0,0,0,0
0.074454480,0,0,1,1,0,1,0,0
0.074460640,0,0,1,0,0,1,0,0
0.074461320,0,0,0,0,0,1,0,0
0.074474040,0,0,0,0,0,0,0,0
0.074480160,0,0,0,0,0,0,1,0
0.074487160,0,0,0,0,0,0,0,0
0.075962160,1,0,0,0,0,0,0,0
0.075969800,1,0,0,0,0,0,0,1
0.075976560,1,1,0,0,0,0,0,1
0.075977240,1,1,1,0,0,0,0,1
0.076004480,1,1,1,0,0,0,0,0
0.076018240,1,1,1,0,1,0,0,0
0.076034640,1,1,1,0,0,0,0,0
0.076242480,1,1,1,1,0,0,0,0
0.076444440,1,1,1,1,0,1,0,0
0.076452440,1,1,1,0,0,1,0,0
0.076453120,1,1,0,0,0,1,0,0
0.076464040,1,1,0,0,0,0,0,0
0.076470440,1,1,0,0,0,0,1,0
0.076477440,1,1,0,0,0,0,0,0
0.077946520,0,1,0,0,0,0,0,0
0.077954200,0,1,0,0,0,0,0,1
0.077961680,0,0,0,0,0,0,0,1
0.077962440,0,0,1,0,0,0,0,1
0.077988880,0,0,1,0,0,0,0,0
0.078003320,0,0,1,0,1,0,0,0
0.078019760,0,0,1,0,0,0,0,0
0.078237680,0,0,1,1,0,0,0,0
0.078440040,0,0,1,1,0,1,0,0
0.078447360,0,0,1,0,0,1,0,0
0.078448040,0,0,0,0,0,1,0,0
0.078459600,0,0,0,0,0,0,0,0
0.078466040,0,0,0,0,0,0,1,0
0.078473040,0,0,0,0,0,0,0,0
0.079959560,1,0,0,0,0,0,0,0
0.079967200,1,0,0,0,0,0,0,1
0.079975760,1,1,0,0,0,0,0,1
0.079976440,1,1,1,0,0,0,0,1
0.080001880,1,1,1,0,0,0,0,0
0.080017400,1,1,1,0,1,0,0,0
0.080033840,1,1,1,0,0,0,0,0
0.080250680,1,1,1,1,0,0,0,0
0.080454920,1,1,1,1,0,1,0,0
0.080463000,1,1,1,0,0,1,0,0
0.080463680,1,1,0,0,0,1,0,0
0.080474520,1,1,0,0,0,0,0,0
0.080480480,1,1,0,0,0,0,1,0
0.080487480,1,1,0,0,0,0,0,0
0.081956840,0,1,0,0,0,0,0,0
0.081964480,0,1,0,0,0,0,0,1
0.081972560,0,0,0,0,0,0,0,1
0.081973320,0,0,1,0,0,0,0,1
0.081999160,0,0,1,0,0,0,0,0
0.082016440,0,0,1,0,1,0,0,0
0.082032840,0,0,1,0,0,0,0,0
0.082240920,0,0,1,1,0,0,0,0
0.082446160,0,0,1,1,0,1,0,0
0.082455000,0,0,1,0,0,1,0,0
0.082455680,0,0,0,0,0,1,0,0
0.082465720,0,0,0,0,0,0,0,0
0.082472120,0,0,0,0,0,0,1,0
0.082479160,0,0,0,0,0,0,0,0
0.083980280,1,0,0,0,0,0,0,0
0.083987960,1,0,0,0,0,0,0,1
0.083994680,1,1,0,0,0,0,0,1
0.083995400,1,1,1,0,0,0,0,1
0.084022640,1,1,1,0,0,0,0,0
0.084037320,1,1,1,0,1,0,0,0
0.084053760,1,1,1,0,0,0,0,0
0.084262880,1,1,1,1,0,0,0,0
0.084466480,1,1,1,1,0,1,0,0
0.084473440,1,1,1,0,0,1,0,0
0.084474160,1,1,0,0,0,1,0,0
0.084486040,1,1,0,0,0,0,0,0
0.084492480,1,1,0,0,0,0,1,0
0.084499480,1,1,0,0,0,0,0,0
0.085954880,0,1,0,0,0,0,0,0
0.085962480,0,1,0,0,0,0,0,1
0.085969760,0,0,0,0,0,0,0,1
0.085970520,0,0,1,0,0,0,0,1
0.085997160,0,0,1,0,0,0,0,0
0.086010280,0,0,1,0,1,0,0,0
0.086026720,0,0,1,0,0,0,0,0
0.086244560,0,0,1,1,0,0,0,0
0.086445960,0,0,1,1,0,1,0,0
0.086447360,0,0,1,0,0,1,0,0
0.086448080,0,0,0,0,0,1,0,0
0.086465520,0,0,0,0,0,0,0,0
0.086477680,0,0,0,0,0,0,1,0
0.086495600,0,0,0,0,0,0,0,0
0.087961720,1,0,0,0,0,0,0,0
0.087969320,1,0,0,0,0,0,0,1
0.087977920,1,1,0,0,0,0,0,1
0.087978600,1,1,1,0,0,0,0,1
0.088004000,1,1,1,0,0,0,0,0
0.088019760,1,1,1,0,1,0,0,0
0.088036160,1,1,1,0,0,0,0,0
0.088247160,1,1,1,1,0,0,0,0
0.088452240,1,1,1,1,0,1,0,0
0.088455560,1,1,1,0,0,1,0,0
0.088456240,1,1,0,0,0,1,0,0
0.088471800,1,1,0,0,0,0,0,0
0.088477880,1,1,0,0,0,0,1,0
0.088484880,1,1,0,0,0,0,0,0
0.089959720,0,1,0,0,0,0,0,0
0.089967400,0,1,0,0,0,0,0,1
0.089974840,0,0,0,0,0,0,0,1
0.089975600,0,0,1,0,0,0,0,1
0.090002080,0,0,1,0,0,0,0,0
0.090015400,0,0,1,0,1,0,0,0
0.090031840,0,0,1,0,0,0,0,0
0.090249280,0,0,1,1,0,0,0,0
0.090451640,0,0,1,1,0,1,0,0
0.090456360,0,0,1,0,0,1,0,0
0.090457040,0,0,0,0,0,1,0,0
0.090471200,0,0,0,0,0,0,0,0
0.090477400,0,0,0,0,0,0,1,0
0.090484440,0,0,0,0,0,0,0,0
0.091953360,1,0,0,0,0,0,0,0
0.091961040,1,0,0,0,0,0,0,1
0.091967800,1,1,0,0,0,0,0,1
0.091968480,1,1,1,0,0,0,0,1
0.091995720,1,1,1,0,0,0,0,0
0.092016280,1,1,1,0,1,0,0,0
0.092032760,1,1,1,0,0,0,0,0
0.092252240,1,1,1,1,0,0,0,0
0.092452720,1,1,1,1,0,1,0,0
0.092463600,1,1,1,0,0,1,0,0
0.092464280,1,1,0,0,0,1,0,0
0.092472280,1,1,0,0,0,0,0,0
0.092478640,1,1,0,0,0,0,1,0
0.092485640,1,1,0,0,0,0,0,0
0.093967520,0,1,0,0,0,0,0,0
0.093975200,0,1,0,0,0,0,0,1
0.093982720,0,0,0,0,0,0,0,1
0.093983480,0,0,1,0,0,0,0,1
0.094009880,0,0,1,0,0,0,0,0
0.094024440,0,0,1,0,1,0,0,0
0.094040880,0,0,1,0,0,0,0,0
0.094250840,0,0,1,1,0,0,0,0
0.094452160,0,0,1,1,0,1,0,0
0.094460360,0,0,1,0,0,1,0,0
0.094461040,0,0,0,0,0,1,0,0
0.094471720,0,0,0,0,0,0,0,0
0.094478160,0,0,0,0,0,0,1,0
0.094485160,0,0,0,0,0,0,0,0
0.095968240,1,0,0,0,0,0,0,0
0.095975840,1,0,0,0,0,0,0,1
0.095982840,1,1,0,0,0,0,0,1
0.095983560,1,1,1,0,0,0,0,1
0.096010520,1,1,1,0,0,0,0,0
0.096024520,1,1,1,0,1,0,0,0
0.096040960,1,1,1,0,0,0,0,0
0.096262040,1,1,1,1,0,0,0,0
0.096465240,1,1,1,1,0,1,0,0
0.096474800,1,1,1,0,0,1,0,0
0.096475480,1,1,0,0,0,1,0,0
0.096484800,1,1,0,0,0,0,0,0
0.096490920,1,1,0,0,0,0,1,0
0.096497920,1,1,0,0,0,0,0,0
0.097964280,0,1,0,0,0,0,0,0
0.097971880,0,1,0,0,0,0,0,1
0.097978920,0,0,0,0,0,0,0,1
0.097979640,0,0,1,0,0,0,0,1
0.098006560,0,0,1,0,0,0,0,0
0.098023920,0,0,1,0,1,0,0,0
0.098040360,0,0,1,0,0,0,0,0
0.098259400,0,0,1,1,0,0,0,0
0.098463920,0,0,1,1,0,1,0,0
0.098469200,0,0,1,0,0,1,0,0
0.098469880,0,0,0,0,0,1,0,0
0.098483440,0,0,0,0,0,0,0,0
0.098489880,0,0,0,0,0,0,1,0
0.098496880,0,0,0,0,0,0,0,0
0.099961880,1,0,0,0,0,0,0,0
0.099969560,1,0,0,0,0,0,0,1
0.099977000,1,1,0,0,0,0,0,1
0.099977680,1,1,1,0,0,0,0,1
0.100004240,1,1,1,0,0,0,0,0
0.100018640,1,1,1,0,1,0,0,0
0.100035080,1,1,1,0,0,0,0,0
