Time [s],Channel 0,Channel 1,Channel 2,Channel 3,Channel 4,Channel 5,Channel 6,Channel 7
-3.760664840,0,0,0,0,0,0,0,0
-0.004801040,0,0,0,0,1,0,0,0
-0.004784200,0,0,0,0,0,0,0,0
-0.003531920,0,0,0,0,0,1,0,0
-0.003503080,0,0,0,0,0,0,0,0
-0.000000000,1,0,0,0,0,0,0,0
0.000007440,1,0,0,0,0,0,0,1
0.000019560,1,1,0,0,0,0,0,1
0.000023880,1,1,1,0,0,0,0,1
0.000086320,1,1,1,0,0,0,0,0
0.000099400,1,1,1,0,1,0,0,0
0.000116240,1,1,1,0,0,0,0,0
0.001117560,1,1,1,1,0,0,0,0
0.001128000,1,1,1,1,0,1,0,0
0.001156840,1,1,1,1,0,0,0,0
0.001383680,1,1,1,0,0,0,0,0
0.001384680,1,1,0,0,0,0,0,0
0.003983400,0,1,0,0,0,0,0,0
0.003990840,0,1,0,0,0,0,0,1
0.003995800,0,1,0,0,0,0,1,1
0.004000320,0,0,0,0,0,0,1,1
0.004001080,0,0,1,0,0,0,1,1
0.004003120,0,0,1,0,0,0,0,1
0.004074680,0,0,1,0,0,0,0,0
0.004087760,0,0,1,0,1,0,0,0
0.004104560,0,0,1,0,0,0,0,0
0.004942680,0,0,1,1,0,0,0,0
0.004955960,0,0,1,1,0,1,0,0
0.004984800,0,0,1,1,0,0,0,0
0.005122480,0,0,1,0,0,0,0,0
0.005124120,0,0,0,0,0,0,0,0
0.007994480,1,0,0,0,0,0,0,0
0.008011200,1,1,0,0,0,0,0,0
0.008011920,1,1,1,0,0,0,0,0
0.008027640,1,1,1,0,0,0,0,1
0.008032560,1,1,1,0,0,0,1,1
0.008039880,1,1,1,0,0,0,0,1
0.008111440,1,1,1,0,0,0,0,0
0.008124520,1,1,1,0,1,0,0,0
0.008141360,1,1,1,0,0,0,0,0
0.009112040,1,1,1,1,0,0,0,0
0.009122200,1,1,1,1,0,1,0,0
0.009151040,1,1,1,1,0,0,0,0
0.009277480,1,1,1,0,0,0,0,0
0.009278440,1,1,0,0,0,0,0,0
0.011982520,0,1,0,0,0,0,0,0
0.011998440,0,0,0,0,0,0,0,0
0.011999200,0,0,1,0,0,0,0,0
0.012026880,0,0,1,0,0,0,0,1
0.012031800,0,0,1,0,0,0,1,1
0.012039120,0,0,1,0,0,0,0,1
0.012110680,0,0,1,0,0,0,0,0
0.012123760,0,0,1,0,1,0,0,0
0.012140600,0,0,1,0,0,0,0,0
0.013315800,0,0,1,1,0,0,0,0
0.013331200,0,0,1,1,0,1,0,0
0.013360040,0,0,1,1,0,0,0,0
0.013533840,0,0,1,0,0,0,0,0
0.013534800,0,0,0,0,0,0,0,0
0.015985240,1,0,0,0,0,0,0,0
0.015992760,1,0,0,0,0,0,0,1
0.015997720,1,0,0,0,0,0,1,1
0.016003280,1,1,0,0,0,0,1,1
0.016004000,1,1,1,0,0,0,1,1
0.016005040,1,1,1,0,0,0,0,1
0.016076600,1,1,1,0,0,0,0,0
0.016089680,1,1,1,0,1,0,0,0
0.016106480,1,1,1,0,0,0,0,0
0.017232320,1,1,1,1,0,0,0,0
0.017242720,1,1,1,1,0,1,0,0
0.017271560,1,1,1,1,0,0,0,0
0.017393640,1,1,1,0,0,0,0,0
0.017394600,1,1,0,0,0,0,0,0
0.019987760,0,1,0,0,0,0,0,0
0.020005400,0,0,0,0,0,0,0,0
0.020006160,0,0,1,0,0,0,0,0
0.020019160,0,0,1,0,0,0,0,1
0.020024120,0,0,1,0,0,0,1,1
0.020031440,0,0,1,0,0,0,0,1
0.020103000,0,0,1,0,0,0,0,0
0.020116000,0,0,1,0,1,0,0,0
0.020132840,0,0,1,0,0,0,0,0
0.021238320,0,0,1,1,0,0,0,0
0.021254720,0,0,1,1,0,1,0,0
0.021283560,0,0,1,1,0,0,0,0
0.021417200,0,0,1,0,0,0,0,0
0.021419280,0,0,0,0,0,0,0,0
0.023984320,1,0,0,0,0,0,0,0
0.023991840,1,0,0,0,0,0,0,1
0.023996800,1,0,0,0,0,0,1,1
0.024002360,1,1,0,0,0,0,1,1
0.024003080,1,1,1,0,0,0,1,1
0.024004120,1,1,1,0,0,0,0,1
0.024075680,1,1,1,0,0,0,0,0
0.024088680,1,1,1,0,1,0,0,0
0.024105520,1,1,1,0,0,0,0,0
0.025101000,1,1,1,1,0,0,0,0
0.025120080,1,1,1,1,0,1,0,0
0.025148920,1,1,1,1,0,0,0,0
0.025289240,1,1,1,0,0,0,0,0
0.025290200,1,1,0,0,0,0,0,0
0.027988080,0,1,0,0,0,0,0,0
0.027995680,0,1,0,0,0,0,0,1
0.028000600,0,1,0,0,0,0,1,1
0.028002400,0,0,0,0,0,0,1,1
0.028003120,0,0,1,0,0,0,1,1
0.028007920,0,0,1,0,0,0,0,1
0.028079480,0,0,1,0,0,0,0,0
0.028092560,0,0,1,0,1,0,0,0
0.028109400,0,0,1,0,0,0,0,0
0.028905120,0,0,1,1,0,0,0,0
0.028922920,0,0,1,1,0,1,0,0
0.028951760,0,0,1,1,0,0,0,0
0.029106000,0,0,1,0,0,0,0,0
0.029106960,0,0,0,0,0,0,0,0
0.031986760,1,0,0,0,0,0,0,0
0.032003520,1,1,0,0,0,0,0,0
0.032004240,1,1,1,0,0,0,0,0
0.032023440,1,1,1,0,0,0,0,1
0.032028360,1,1,1,0,0,0,1,1
0.032035680,1,1,1,0,0,0,0,1
0.032107240,1,1,1,0,0,0,0,0
0.032120320,1,1,1,0,1,0,0,0
0.032137160,1,1,1,0,0,0,0,0
0.032970480,1,1,1,1,0,0,0,0
0.032987480,1,1,1,1,0,1,0,0
0.033016600,1,1,1,1,0,0,0,0
0.033154000,1,1,1,0,0,0,0,0
0.033155640,1,1,0,0,0,0,0,0
0.035987560,0,1,0,0,0,0,0,0
0.036010920,0,0,0,0,0,0,0,0
0.036011720,0,0,1,0,0,0,0,0
0.036016800,0,0,1,0,0,0,0,1
0.036021720,0,0,1,0,0,0,1,1
0.036029040,0,0,1,0,0,0,0,1
0.036100720,0,0,1,0,0,0,0,0
0.036120120,0,0,1,0,1,0,0,0
0.036136960,0,0,1,0,0,0,0,0
0.037116160,0,0,1,1,0,0,0,0
0.037132200,0,0,1,1,0,1,0,0
0.037161040,0,0,1,1,0,0,0,0
0.037345400,0,0,1,0,0,0,0,0
0.037346360,0,0,0,0,0,0,0,0
0.039980240,1,0,0,0,0,0,0,0
0.039996680,1,1,0,0,0,0,0,0
0.039997400,1,1,1,0,0,0,0,0
0.040018800,1,1,1,0,0,0,0,1
0.040023720,1,1,1,0,0,0,1,1
0.040031080,1,1,1,0,0,0,0,1
0.040102600,1,1,1,0,0,0,0,0
0.040115680,1,1,1,0,1,0,0,0
0.040132520,1,1,1,0,0,0,0,0
0.041320160,1,1,1,1,0,0,0,0
0.041328880,1,1,1,1,0,1,0,0
0.041357720,1,1,1,1,0,0,0,0
0.041527160,1,1,1,0,0,0,0,0
0.041528800,1,1,0,0,0,0,0,0
0.043987000,0,1,0,0,0,0,0,0
0.044005720,0,0,0,0,0,0,0,0
0.044006480,0,0,1,0,0,0,0,0
0.044032920,0,0,1,0,0,0,0,1
0.044037880,0,0,1,0,0,0,1,1
0.044045200,0,0,1,0,0,0,0,1
0.044116880,0,0,1,0,0,0,0,0
0.044129960,0,0,1,0,1,0,0,0
0.044146800,0,0,1,0,0,0,0,0
0.045264200,0,0,1,1,0,0,0,0
0.045283040,0,0,1,1,0,1,0,0
0.045312160,0,0,1,1,0,0,0,0
0.045427400,0,0,1,0,0,0,0,0
0.045429480,0,0,0,0,0,0,0,0
0.047979840,1,0,0,0,0,0,0,0
0.047987360,1,0,0,0,0,0,0,1
0.047992280,1,0,0,0,0,0,1,1
0.047995680,1,1,0,0,0,0,1,1
0.047996360,1,1,1,0,0,0,1,1
0.047999640,1,1,1,0,0,0,0,1
0.048071160,1,1,1,0,0,0,0,0
0.048084240,1,1,1,0,1,0,0,0
0.048101080,1,1,1,0,0,0,0,0
0.049165560,1,1,1,1,0,0,0,0
0.049178520,1,1,1,1,0,1,0,0
0.049207360,1,1,1,1,0,0,0,0
0.049350280,1,1,1,0,0,0,0,0
0.049351920,1,1,0,0,0,0,0,0
0.051979360,0,1,0,0,0,0,0,0
0.051986880,0,1,0,0,0,0,0,1
0.051991800,0,1,0,0,0,0,1,1
0.051995800,0,0,0,0,0,0,1,1
0.051996560,0,0,1,0,0,0,1,1
0.051999120,0,0,1,0,0,0,0,1
0.052071000,0,0,1,0,0,0,0,0
0.052084080,0,0,1,0,1,0,0,0
0.052100880,0,0,1,0,0,0,0,0
0.052876160,0,0,1,1,0,0,0,0
0.052894840,0,0,1,1,0,1,0,0
0.052923680,0,0,1,1,0,0,0,0
0.053065760,0,0,1,0,0,0,0,0
0.053067400,0,0,0,0,0,0,0,0
0.055986280,1,0,0,0,0,0,0,0
0.055993760,1,0,0,0,0,0,0,1
0.055998680,1,0,0,0,0,0,1,1
0.056003920,1,1,0,0,0,0,1,1
0.056004640,1,1,1,0,0,0,1,1
0.056006000,1,1,1,0,0,0,0,1
0.056077880,1,1,1,0,0,0,0,0
0.056090960,1,1,1,0,1,0,0,0
0.056107800,1,1,1,0,0,0,0,0
0.056884760,1,1,1,1,0,0,0,0
0.056901880,1,1,1,1,0,1,0,0
0.056930720,1,1,1,1,0,0,0,0
0.057058800,1,1,1,0,0,0,0,0
0.057059760,1,1,0,0,0,0,0,0
0.059983680,0,1,0,0,0,0,0,0
0.060001840,0,0,0,0,0,0,0,0
0.060002600,0,0,1,0,0,0,0,0
0.060009960,0,0,1,0,0,0,0,1
0.060014880,0,0,1,0,0,0,1,1
0.060022200,0,0,1,0,0,0,0,1
0.060093760,0,0,1,0,0,0,0,0
0.060106840,0,0,1,0,1,0,0,0
0.060123680,0,0,1,0,0,0,0,0
0.061054080,0,0,1,1,0,0,0,0
0.061070880,0,0,1,1,0,1,0,0
0.061099720,0,0,1,1,0,0,0,0
0.061267240,0,0,1,0,0,0,0,0
0.061269320,0,0,0,0,0,0,0,0
0.063985720,1,0,0,0,0,0,0,0
0.064002000,1,1,0,0,0,0,0,0
0.064002720,1,1,1,0,0,0,0,0
0.064011680,1,1,1,0,0,0,0,1
0.064016600,1,1,1,0,0,0,1,1
0.064023960,1,1,1,0,0,0,0,1
0.064095800,1,1,1,0,0,0,0,0
0.064108880,1,1,1,0,1,0,0,0
0.064125720,1,1,1,0,0,0,0,0
0.065225800,1,1,1,1,0,0,0,0
0.065244800,1,1,1,1,0,1,0,0
0.065273640,1,1,1,1,0,0,0,0
0.065397680,1,1,1,0,0,0,0,0
0.065398640,1,1,0,0,0,0,0,0
0.067980480,0,1,0,0,0,0,0,0
0.067997080,0,0,0,0,0,0,0,0
0.067997840,0,0,1,0,0,0,0,0
0.068017480,0,0,1,0,0,0,0,1
0.068022400,0,0,1,0,0,0,1,1
0.068029720,0,0,1,0,0,0,0,1
0.068101600,0,0,1,0,0,0,0,0
0.068114680,0,0,1,0,1,0,0,0
0.068131520,0,0,1,0,0,0,0,0
0.069260960,0,0,1,1,0,0,0,0
0.069278800,0,0,1,1,0,1,0,0
0.069307640,0,0,1,1,0,0,0,0
0.069484400,0,0,1,0,0,0,0,0
0.069486480,0,0,0,0,0,0,0,0
0.071981360,1,0,0,0,0,0,0,0
0.071995920,1,0,0,0,0,0,0,1
0.071996120,1,1,0,0,0,0,0,1
0.071996800,1,1,1,0,0,0,0,1
0.072000880,1,1,1,0,0,0,1,1
0.072008200,1,1,1,0,0,0,0,1
0.072079760,1,1,1,0,0,0,0,0
0.072092840,1,1,1,0,1,0,0,0
0.072109640,1,1,1,0,0,0,0,0
0.073270080,1,1,1,1,0,0,0,0
0.073287120,1,1,1,1,0,1,0,0
0.073315960,1,1,1,1,0,0,0,0
0.073475760,1,1,1,0,0,0,0,0
0.073476720,1,1,0,0,0,0,0,0
0.075979680,0,1,0,0,0,0,0,0
0.075987240,0,1,0,0,0,0,0,1
0.075992160,0,1,0,0,0,0,1,1
0.075994080,0,0,0,0,0,0,1,1
0.075994840,0,0,1,0,0,0,1,1
0.075999480,0,0,1,0,0,0,0,1
0.076071160,0,0,1,0,0,0,0,0
0.076090560,0,0,1,0,1,0,0,0
0.076107400,0,0,1,0,0,0,0,0
0.077136800,0,0,1,1,0,0,0,0
0.077149680,0,0,1,1,0,1,0,0
0.077178520,0,0,1,1,0,0,0,0
0.077332560,0,0,1,0,0,0,0,0
0.077334680,0,0,0,0,0,0,0,0
0.079987800,1,0,0,0,0,0,0,0
0.079995320,1,0,0,0,0,0,0,1
0.080000280,1,0,0,0,0,0,1,1
0.080003160,1,1,0,0,0,0,1,1
0.080003840,1,1,1,0,0,0,1,1
0.080007600,1,1,1,0,0,0,0,1
0.080079160,1,1,1,0,0,0,0,0
0.080092240,1,1,1,0,1,0,0,0
0.080109040,1,1,1,0,0,0,0,0
0.080903600,1,1,1,1,0,0,0,0
0.080920600,1,1,1,1,0,1,0,0
0.080949440,1,1,1,1,0,0,0,0
0.081091320,1,1,1,0,0,0,0,0
0.081093400,1,1,0,0,0,0,0,0
0.083980240,0,1,0,0,0,0,0,0
0.083987800,0,1,0,0,0,0,0,1
0.083992720,0,1,0,0,0,0,1,1
0.083998200,0,0,0,0,0,0,1,1
0.083998960,0,0,1,0,0,0,1,1
0.084000080,0,0,1,0,0,0,0,1
0.084071640,0,0,1,0,0,0,0,0
0.084084680,0,0,1,0,1,0,0,0
0.084101520,0,0,1,0,0,0,0,0
0.084912840,0,0,1,1,0,0,0,0
0.084927600,0,0,1,1,0,1,0,0
0.084956440,0,0,1,1,0,0,0,0
0.085088120,0,0,1,0,0,0,0,0
0.085089080,0,0,0,0,0,0,0,0
0.087989040,1,0,0,0,0,0,0,0
0.088006160,1,0,0,0,0,0,0,1
0.088006520,1,1,0,0,0,0,0,1
0.088007240,1,1,1,0,0,0,0,1
0.088011080,1,1,1,0,0,0,1,1
0.088018400,1,1,1,0,0,0,0,1
0.088089960,1,1,1,0,0,0,0,0
0.088103040,1,1,1,0,1,0,0,0
0.088119880,1,1,1,0,0,0,0,0
0.089083640,1,1,1,1,0,0,0,0
0.089096080,1,1,1,1,0,1,0,0
0.089124960,1,1,1,1,0,0,0,0
0.089240360,1,1,1,0,0,0,0,0
0.089241360,1,1,0,0,0,0,0,0
0.091981400,0,1,0,0,0,0,0,0
0.091997360,0,0,0,0,0,0,0,0
0.091998120,0,0,1,0,0,0,0,0
0.092006320,0,0,1,0,0,0,0,1
0.092011280,0,0,1,0,0,0,1,1
0.092018600,0,0,1,0,0,0,0,1
0.092090280,0,0,1,0,0,0,0,0
0.092103360,0,0,1,0,1,0,0,0
0.092120200,0,0,1,0,0,0,0,0
0.093225880,0,0,1,1,0,0,0,0
0.093243040,0,0,1,1,0,1,0,0
0.093271880,0,0,1,1,0,0,0,0
0.093414840,0,0,1,0,0,0,0,0
0.093415800,0,0,0,0,0,0,0,0
0.095985800,1,0,0,0,0,0,0,0
0.096002440,1,1,0,0,0,0,0,0
0.096003120,1,1,1,0,0,0,0,0
0.096011720,1,1,1,0,0,0,0,1
0.096016680,1,1,1,0,0,0,1,1
0.096024000,1,1,1,0,0,0,0,1
0.096095680,1,1,1,0,0,0,0,0
0.096108760,1,1,1,0,1,0,0,0
0.096125560,1,1,1,0,0,0,0,0
0.097302840,1,1,1,1,0,0,0,0
0.097317680,1,1,1,1,0,1,0,0
0.097346520,1,1,1,1,0,0,0,0
0.097484680,1,1,1,0,0,0,0,0
0.097486800,1,1,0,0,0,0,0,0
0.099988560,0,1,0,0,0,0,0,0
0.100003440,0,0,0,0,0,0,0,0
0.100004200,0,0,1,0,0,0,0,0
0.100035240,0,0,1,0,0,0,0,1
0.100040200,0,0,1,0,0,0,1,1
0.100047520,0,0,1,0,0,0,0,1
0.100119080,0,0,1,0,0,0,0,0
0.100132160,0,0,1,0,1,0,0,0
0.100148960,0,0,1,0,0,0,0,0
0.101271240,0,0,1,1,0,0,0,0
0.101282400,0,0,1,1,0,1,0,0
0.101311240,0,0,1,1,0,0,0,0
0.101435920,0,0,1,0,0,0,0,0
0.101436880,0,0,0,0,0,0,0,0
0.103988160,1,0,0,0,0,0,0,0
0.103995720,1,0,0,0,0,0,0,1
0.104000680,1,0,0,0,0,0,1,1
0.104003320,1,1,0,0,0,0,1,1
0.104004000,1,1,1,0,0,0,1,1
0.104008000,1,1,1,0,0,0,0,1
0.104079560,1,1,1,0,0,0,0,0
0.104092640,1,1,1,0,1,0,0,0
0.104109440,1,1,1,0,0,0,0,0
0.105135120,1,1,1,1,0,0,0,0
0.105142960,1,1,1,1,0,1,0,0
0.105171840,1,1,1,1,0,0,0,0
0.105348160,1,1,1,0,0,0,0,0
0.105349120,1,1,0,0,0,0,0,0
0.107985080,0,1,0,0,0,0,0,0
0.107992600,0,1,0,0,0,0,0,1
0.107997560,0,1,0,0,0,0,1,1
0.108004880,0,1,0,0,0,0,0,1
0.108008400,0,0,0,0,0,0,0,1
0.108009160,0,0,1,0,0,0,0,1
0.108076560,0,0,1,0,0,0,0,0
0.108089640,0,0,1,0,1,0,0,0
0.108106440,0,0,1,0,0,0,0,0
0.108907960,0,0,1,1,0,0,0,0
0.108923480,0,0,1,1,0,1,0,0
0.108952320,0,0,1,1,0,0,0,0
0.109165640,0,0,1,0,0,0,0,0
0.109166600,0,0,0,0,0,0,0,0
0.111982400,1,0,0,0,0,0,0,0
0.111989920,1,0,0,0,0,0,0,1
0.111994840,1,0,0,0,0,0,1,1
0.111997680,1,1,0,0,0,0,1,1
0.111998400,1,1,1,0,0,0,1,1
0.112002160,1,1,1,0,0,0,0,1
0.112073840,1,1,1,0,0,0,0,0
0.112086920,1,1,1,0,1,0,0,0
0.112103760,1,1,1,0,0,0,0,0
0.112896760,1,1,1,1,0,0,0,0
0.112912920,1,1,1,1,0,1,0,0
0.112942040,1,1,1,1,0,0,0,0
0.113089640,1,1,1,0,0,0,0,0
0.113090600,1,1,0,0,0,0,0,0
0.115982760,0,1,0,0,0,0,0,0
0.116000800,0,0,0,0,0,0,0,0
0.116001560,0,0,1,0,0,0,0,0
0.116023440,0,0,1,0,0,0,0,1
0.116028360,0,0,1,0,0,0,1,1
0.116035680,0,0,1,0,0,0,0,1
0.116107320,0,0,1,0,0,0,0,0
0.116126680,0,0,1,0,1,0,0,0
0.116143520,0,0,1,0,0,0,0,0
0.117098400,0,0,1,1,0,0,0,0
0.117116000,0,0,1,1,0,1,0,0
0.117144840,0,0,1,1,0,0,0,0
0.117289760,0,0,1,0,0,0,0,0
0.117290720,0,0,0,0,0,0,0,0
0.119980280,1,0,0,0,0,0,0,0
0.119996720,1,1,0,0,0,0,0,0
0.119997440,1,1,1,0,0,0,0,0
0.120023680,1,1,1,0,0,0,0,1
0.120028600,1,1,1,0,0,0,1,1
0.120035920,1,1,1,0,0,0,0,1
0.120107560,1,1,1,0,0,0,0,0
0.120126920,1,1,1,0,1,0,0,0
0.120143760,1,1,1,0,0,0,0,0
0.121275080,1,1,1,1,0,0,0,0
0.121287000,1,1,1,1,0,1,0,0
0.121315840,1,1,1,1,0,0,0,0
0.121478800,1,1,1,0,0,0,0,0
0.121480400,1,1,0,0,0,0,0,0
0.123983440,0,1,0,0,0,0,0,0
0.123999680,0,0,0,0,0,0,0,0
0.124000480,0,0,1,0,0,0,0,0
0.124028400,0,0,1,0,0,0,0,1
0.124033360,0,0,1,0,0,0,1,1
0.124040680,0,0,1,0,0,0,0,1
0.124112280,0,0,1,0,0,0,0,0
0.124125360,0,0,1,0,1,0,0,0
0.124142200,0,0,1,0,0,0,0,0
0.125278480,0,0,1,1,0,0,0,0
0.125294320,0,0,1,1,0,1,0,0
0.125323160,0,0,1,1,0,0,0,0
0.128434680,0,0,1,0,0,0,0,0
0.128437400,0,0,0,0,0,0,0,0
0.128442960,1,0,0,0,0,0,0,0
0.128447120,1,1,0,0,0,0,0,0
0.128447840,1,1,1,0,0,0,0,0
0.128487720,1,1,1,0,0,0,0,1
0.128492640,1,1,1,0,0,0,1,1
0.128500000,1,1,1,0,0,0,0,1
0.128571600,1,1,1,0,0,0,0,0
0.128584680,1,1,1,0,1,0,0,0
0.128601520,1,1,1,0,0,0,0,0
0.129733160,1,1,1,1,0,0,0,0
0.129746720,1,1,1,1,0,1,0,0
0.129775560,1,1,1,1,0,0,0,0
0.129956200,1,1,1,0,0,0,0,0
0.129957200,1,1,0,0,0,0,0,0
0.131980760,0,1,0,0,0,0,0,0
0.131988280,0,1,0,0,0,0,0,1
0.131993240,0,1,0,0,0,0,1,1
0.131999880,0,0,0,0,0,0,1,1
0.132000560,0,0,0,0,0,0,0,1
0.132000640,0,0,1,0,0,0,0,1
0.132072120,0,0,1,0,0,0,0,0
0.132085200,0,0,1,0,1,0,0,0
0.132102000,0,0,1,0,0,0,0,0
0.133171480,0,0,1,1,0,0,0,0
0.133187720,0,0,1,1,0,1,0,0
0.133216560,0,0,1,1,0,0,0,0
0.133379480,0,0,1,0,0,0,0,0
0.133381120,0,0,0,0,0,0,0,0
0.135989800,1,0,0,0,0,0,0,0
0.135997280,1,0,0,0,0,0,0,1
0.136002240,1,0,0,0,0,0,1,1
0.136006920,1,1,0,0,0,0,1,1
0.136007640,1,1,1,0,0,0,1,1
0.136009560,1,1,1,0,0,0,0,1
0.136081160,1,1,1,0,0,0,0,0
0.136094240,1,1,1,0,1,0,0,0
0.136111080,1,1,1,0,0,0,0,0
0.136918240,1,1,1,1,0,0,0,0
0.136928280,1,1,1,1,0,1,0,0
0.136957120,1,1,1,1,0,0,0,0
0.137122200,1,1,1,0,0,0,0,0
0.137123840,1,1,0,0,0,0,0,0
0.139989840,0,1,0,0,0,0,0,0
0.139997360,0,1,0,0,0,0,0,1
0.140002320,0,1,0,0,0,0,1,1
0.140008040,0,0,0,0,0,0,1,1
0.140008800,0,0,1,0,0,0,1,1
0.140009640,0,0,1,0,0,0,0,1
0.140081280,0,0,1,0,0,0,0,0
0.140094320,0,0,1,0,1,0,0,0
0.140111160,0,0,1,0,0,0,0,0
0.140897120,0,0,1,1,0,0,0,0
0.140912480,0,0,1,1,0,1,0,0
0.140941320,0,0,1,1,0,0,0,0
0.141100240,0,0,1,0,0,0,0,0
0.141101200,0,0,0,0,0,0,0,0
0.143986880,1,0,0,0,0,0,0,0
0.144003240,1,1,0,0,0,0,0,0
0.144003960,1,1,1,0,0,0,0,0
0.144007920,1,1,1,0,0,0,0,1
0.144012840,1,1,1,0,0,0,1,1
0.144020200,1,1,1,0,0,0,0,1
0.144092000,1,1,1,0,0,0,0,0
0.144105040,1,1,1,0,1,0,0,0
0.144121880,1,1,1,0,0,0,0,0
0.145065120,1,1,1,1,0,0,0,0
0.145081720,1,1,1,1,0,1,0,0
0.145110560,1,1,1,1,0,0,0,0
0.145258400,1,1,1,0,0,0,0,0
0.145259400,1,1,0,0,0,0,0,0
0.147985320,0,1,0,0,0,0,0,0
0.148002080,0,0,0,0,0,0,0,0
0.148002840,0,0,1,0,0,0,0,0
0.148007760,0,0,1,0,0,0,0,1
0.148012680,0,0,1,0,0,0,1,1
0.148020040,0,0,1,0,0,0,0,1
0.148091720,0,0,1,0,0,0,0,0
0.148104760,0,0,1,0,1,0,0,0
0.148121600,0,0,1,0,0,0,0,0
0.149275520,0,0,1,1,0,0,0,0
0.149289240,0,0,1,1,0,1,0,0
0.149318080,0,0,1,1,0,0,0,0
0.149451000,0,0,1,0,0,0,0,0
0.149451960,0,0,0,0,0,0,0,0
0.151984400,1,0,0,0,0,0,0,0
0.152002080,1,1,0,0,0,0,0,0
0.152002800,1,1,1,0,0,0,0,0
0.152014040,1,1,1,0,0,0,0,1
0.152019000,1,1,1,0,0,0,1,1
0.152026320,1,1,1,0,0,0,0,1
0.152098000,1,1,1,0,0,0,0,0
0.152111040,1,1,1,0,1,0,0,0
0.152127880,1,1,1,0,0,0,0,0
0.153305480,1,1,1,1,0,0,0,0
0.153320160,1,1,1,1,0,1,0,0
0.153349000,1,1,1,1,0,0,0,0
0.153526720,1,1,1,0,0,0,0,0
0.153527680,1,1,0,0,0,0,0,0
0.155986360,0,1,0,0,0,0,0,0
0.155998200,0,1,0,0,0,0,0,1
0.156001160,0,0,0,0,0,0,0,1
0.156001880,0,0,1,0,0,0,0,1
0.156003120,0,0,1,0,0,0,1,1
0.156010440,0,0,1,0,0,0,0,1
0.156082000,0,0,1,0,0,0,0,0
0.156095080,0,0,1,0,1,0,0,0
0.156111920,0,0,1,0,0,0,0,0
0.157263720,0,0,1,1,0,0,0,0
0.157282800,0,0,1,1,0,1,0,0
0.157311640,0,0,1,1,0,0,0,0
0.157433560,0,0,1,0,0,0,0,0
0.157435160,0,0,0,0,0,0,0,0
0.159982720,1,0,0,0,0,0,0,0
0.159990240,1,0,0,0,0,0,0,1
0.159995160,1,0,0,0,0,0,1,1
0.160000320,1,1,0,0,0,0,1,1
0.160001040,1,1,1,0,0,0,1,1
0.160002480,1,1,1,0,0,0,0,1
0.160074040,1,1,1,0,0,0,0,0
0.160093360,1,1,1,0,1,0,0,0
0.160110200,1,1,1,0,0,0,0,0
0.161060960,1,1,1,1,0,0,0,0
0.161077240,1,1,1,1,0,1,0,0
0.161106400,1,1,1,1,0,0,0,0
0.161224240,1,1,1,0,0,0,0,0
0.161225200,1,1,0,0,0,0,0,0
0.163985880,0,1,0,0,0,0,0,0
0.163993400,0,1,0,0,0,0,0,1
0.163998360,0,1,0,0,0,0,1,1
0.164002280,0,0,0,0,0,0,1,1
0.164003040,0,0,1,0,0,0,1,1
0.164005680,0,0,1,0,0,0,0,1
0.164077240,0,0,1,0,0,0,0,0
0.164090280,0,0,1,0,1,0,0,0
0.164107120,0,0,1,0,0,0,0,0
0.164895200,0,0,1,1,0,0,0,0
0.164912400,0,0,1,1,0,1,0,0
0.164941240,0,0,1,1,0,0,0,0
0.165069000,0,0,1,0,0,0,0,0
0.165069960,0,0,0,0,0,0,0,0
0.167992040,1,0,0,0,0,0,0,0
0.167999520,1,0,0,0,0,0,0,1
0.168004480,1,0,0,0,0,0,1,1
0.168007400,1,1,0,0,0,0,1,1
0.168008120,1,1,1,0,0,0,1,1
0.168011800,1,1,1,0,0,0,0,1
0.168083360,1,1,1,0,0,0,0,0
0.168096400,1,1,1,0,1,0,0,0
0.168113240,1,1,1,0,0,0,0,0
0.168907200,1,1,1,1,0,0,0,0
0.168925480,1,1,1,1,0,1,0,0
0.168954320,1,1,1,1,0,0,0,0
0.169095520,1,1,1,0,0,0,0,0
0.169096520,1,1,0,0,0,0,0,0
0.171990640,0,1,0,0,0,0,0,0
0.172009400,0,0,0,0,0,0,0,0
0.172010160,0,0,1,0,0,0,0,0
0.172036680,0,0,1,0,0,0,0,1
0.172041600,0,0,1,0,0,0,1,1
0.172048920,0,0,1,0,0,0,0,1
0.172120600,0,0,1,0,0,0,0,0
0.172133680,0,0,1,0,1,0,0,0
0.172150520,0,0,1,0,0,0,0,0
0.173096720,0,0,1,1,0,0,0,0
0.173110840,0,0,1,1,0,1,0,0
0.173139680,0,0,1,1,0,0,0,0
0.173274040,0,0,1,0,0,0,0,0
0.173276120,0,0,0,0,0,0,0,0
0.175989400,1,0,0,0,0,0,0,0
0.176006720,1,1,0,0,0,0,0,0
0.176007440,1,1,1,0,0,0,0,0
0.176033520,1,1,1,0,0,0,0,1
0.176038480,1,1,1,0,0,0,1,1
0.176045800,1,1,1,0,0,0,0,1
0.176117400,1,1,1,0,0,0,0,0
0.176130480,1,1,1,0,1,0,0,0
0.176147320,1,1,1,0,0,0,0,0
0.177281040,1,1,1,1,0,0,0,0
0.177294400,1,1,1,1,0,1,0,0
0.177323240,1,1,1,1,0,0,0,0
0.177471880,1,1,1,0,0,0,0,0
0.177472920,1,1,0,0,0,0,0,0
0.179989160,0,1,0,0,0,0,0,0
0.180004520,0,0,0,0,0,0,0,0
0.180005320,0,0,1,0,0,0,0,0
0.180031800,0,0,1,0,0,0,0,1
0.180036760,0,0,1,0,0,0,1,1
0.180044080,0,0,1,0,0,0,0,1
0.180115680,0,0,1,0,0,0,0,0
0.180128760,0,0,1,0,1,0,0,0
0.180145600,0,0,1,0,0,0,0,0
0.181279400,0,0,1,1,0,0,0,0
0.181293080,0,0,1,1,0,1,0,0
0.181321920,0,0,1,1,0,0,0,0
0.181436000,0,0,1,0,0,0,0,0
0.181436960,0,0,0,0,0,0,0,0
0.183984080,1,0,0,0,0,0,0,0
0.184002640,1,1,0,0,0,0,0,0
0.184003360,1,1,1,0,0,0,0,0
0.184015760,1,1,1,0,0,0,0,1
0.184020720,1,1,1,0,0,0,1,1
0.184028040,1,1,1,0,0,0,0,1
0.184099600,1,1,1,0,0,0,0,0
0.184112680,1,1,1,0,1,0,0,0
0.184129480,1,1,1,0,0,0,0,0
0.185289360,1,1,1,1,0,0,0,0
0.185304680,1,1,1,1,0,1,0,0
0.185333520,1,1,1,1,0,0,0,0
0.185475800,1,1,1,0,0,0,0,0
0.185476760,1,1,0,0,0,0,0,0
0.187979560,0,1,0,0,0,0,0,0
0.187987080,0,1,0,0,0,0,0,1
0.187992040,0,1,0,0,0,0,1,1
0.187997200,0,0,0,0,0,0,1,1
0.187997960,0,0,1,0,0,0,1,1
0.187999360,0,0,1,0,0,0,0,1
0.188071160,0,0,1,0,0,0,0,0
0.188084160,0,0,1,0,1,0,0,0
0.188101000,0,0,1,0,0,0,0,0
0.189103480,0,0,1,1,0,0,0,0
0.189116120,0,0,1,1,0,1,0,0
0.189144960,0,0,1,1,0,0,0,0
0.189298960,0,0,1,0,0,0,0,0
0.189299920,0,0,0,0,0,0,0,0
0.191991920,1,0,0,0,0,0,0,0
0.191999440,1,0,0,0,0,0,0,1
0.192004400,1,0,0,0,0,0,1,1
0.192007720,1,1,0,0,0,0,1,1
0.192008440,1,1,1,0,0,0,1,1
0.192011720,1,1,1,0,0,0,0,1
0.192083280,1,1,1,0,0,0,0,0
0.192096360,1,1,1,0,1,0,0,0
0.192113200,1,1,1,0,0,0,0,0
0.192907960,1,1,1,1,0,0,0,0
0.192924440,1,1,1,1,0,1,0,0
0.192953280,1,1,1,1,0,0,0,0
0.193077840,1,1,1,0,0,0,0,0
0.193080680,1,1,0,0,0,0,0,0
0.195990400,0,1,0,0,0,0,0,0
0.195997920,0,1,0,0,0,0,0,1
0.196002880,0,1,0,0,0,0,1,1
0.196006840,0,0,0,0,0,0,1,1
0.196007600,0,0,1,0,0,0,1,1
0.196010200,0,0,1,0,0,0,0,1
0.196081760,0,0,1,0,0,0,0,0
0.196094800,0,0,1,0,1,0,0,0
0.196111640,0,0,1,0,0,0,0,0
0.196901800,0,0,1,1,0,0,0,0
0.196919040,0,0,1,1,0,1,0,0
0.196947880,0,0,1,1,0,0,0,0
0.197068960,0,0,1,0,0,0,0,0
0.197070600,0,0,0,0,0,0,0,0
0.199984920,1,0,0,0,0,0,0,0
0.200001840,1,1,0,0,0,0,0,0
0.200002560,1,1,1,0,0,0,0,0
0.200027600,1,1,1,0,0,0,0,1
0.200032560,1,1,1,0,0,0,1,1
0.200039880,1,1,1,0,0,0,0,1
0.200111520,1,1,1,0,0,0,0,0
